#  HZ   S   DB   R     50.0000 
! Rohde & Schwarz ZVA/B 
! 
! 
! 

 1.000000000000000E9    -9.113529456130776E-1   1.159820189776476E2  -6.298231749279739E1   9.513451624301443E1  -6.126325352963148E1   1.182817784645227E2  -8.489635475781676E-1   1.220109922619433E2  
 1.005012531328321E9    -6.801697426153160E-1   1.047287875166905E2  -6.368317572034188E1   8.698887336513953E1  -6.305436485574541E1   9.572615832732278E1  -5.992477162387568E-1   1.100515120301919E2  
 1.010025062656642E9    -4.754843399961954E-1   8.987805084468272E1  -6.219516066660641E1   8.392214054923844E1  -6.339113895745325E1   7.419917380735997E1  -5.752624216903061E-1   9.056312576409336E1  
 1.015037593984963E9    -7.275686219477474E-1   7.347278056443854E1  -6.347727194198212E1   6.228170190727920E1  -6.221726723794462E1   7.528309943436132E1  -5.237050317792396E-1   7.686601162649588E1  
 1.020050125313283E9    -6.660344447339278E-1   5.610496916886191E1  -5.997774784223229E1   5.226001074777724E1  -6.065304726042081E1   6.677806183315362E1  -6.466113905534919E-1   6.233726521312583E1  
 1.025062656641604E9    -7.917913361853294E-1   4.215851176678877E1  -6.074753147737452E1   5.147484914642737E1  -5.910438035835337E1   4.579697235111312E1  -5.613886591977424E-1   4.685832823351482E1  
 1.030075187969925E9    -6.640770379285195E-1   2.581807612635443E1  -6.007576995619573E1   2.776491869348898E1  -5.917779083719630E1   3.041543613822093E1  -5.620082680091554E-1   3.056720984560816E1  
 1.035087719298246E9    -3.393733870822465E-1   1.099112886090855E1  -5.907701796964076E1   1.506299501751358E1  -5.886114232324871E1   1.270692917639125E1  -6.414683995571721E-1   1.641596493319398E1  
 1.040100250626566E9    -5.676684570880616E-1  -5.662605217738659  -5.801254419632087E1   2.750972391279312E-1  -5.865373484702889E1  -1.433076404241318E1  -5.920064084983165E-1  -2.518202962095690  
 1.045112781954887E9    -6.356693446411940E-1  -2.307648642637032E1  -5.609856074254029E1  -2.038890232218717E1  -5.733307111918222E1  -3.105317833573905E1  -5.594886161682837E-1  -1.716074994333147E1  
 1.050125313283208E9    -4.219079969390548E-1  -3.702938748203413E1  -5.630900878167594E1  -4.802474503713093E1  -5.693312439456764E1  -4.566684539879218E1  -6.129362469175571E-1  -3.640857015868406E1  
 1.055137844611529E9    -6.174403361043008E-1  -5.276811081481107E1  -5.632559554317156E1  -6.647852278756132E1  -5.833858284658142E1  -6.099931898813059E1  -6.169829180050570E-1  -5.019060878314530E1  
 1.060150375939850E9    -4.527825977178467E-1  -6.901537786450265E1  -5.630537771391253E1  -8.534589147111296E1  -5.802386078234076E1  -7.806288628356087E1  -4.875058270852075E-1  -6.756507878036271E1  
 1.065162907268171E9    -6.992386541139016E-1  -8.534705617439587E1  -5.773793198794838E1  -1.023363020938469E2  -5.728022436751047E1  -9.845335807981182E1  -5.820553255297335E-1  -8.208952871343684E1  
 1.070175438596491E9    -6.323927332635743E-1  -1.008077050340036E2  -5.804023903624375E1  -1.170848256452256E2  -5.762888467817142E1  -1.073076732524897E2  -6.341345743220846E-1  -9.647214615103844E1  
 1.075187969924812E9    -3.704449990800148E-1  -1.186864760657782E2  -5.871555710202195E1  -1.338633666477032E2  -5.965244410759627E1  -1.300114748530007E2  -7.566816879898777E-1  -1.124256626361768E2  
 1.080200501253133E9    -4.691302550061787E-1  -1.308392213266532E2  -5.969446018045228E1  -1.454960907198211E2  -6.103994078984626E1  -1.492908295073127E2  -7.440336667093973E-1  -1.287910352425631E2  
 1.085213032581454E9    -4.090585405179434E-1  -1.468343514131645E2  -6.314496805912564E1  -1.500290959633929E2  -5.977194895375435E1  -1.630845469607008E2  -5.855023689261615E-1  -1.453890682385314E2  
 1.090225563909775E9    -7.020924321662109E-1  -1.653081545760897E2  -6.104444564935665E1  -1.710619870545076E2  -6.076029692383255E1  -1.671590266235694E2  -4.124345047097576E-1  -1.612320138305593E2  
 1.095238095238095E9    -4.604997849228572E-1  -1.775506891720195E2  -6.196802500727735E1  -1.719553776958035E2  -6.045903230426766E1  -1.751723540857570E2  -4.967992254534258E-1  -1.745340321668959E2  
 1.100250626566416E9    -3.394227138735600E-1   1.656977532888112E2  -6.066673126910363E1   1.788431039466459E2  -6.073533527901800E1  -1.795550296895300E2  -4.354550805528155E-1   1.715122271718241E2  
 1.105263157894737E9    -4.390101879825966E-1   1.498452897974523E2  -6.041565910299585E1   1.777180613660990E2  -6.040535530985029E1   1.680956274986002E2  -5.484990389377559E-1   1.548349734971926E2  
 1.110275689223058E9    -4.481846824803163E-1   1.347488348960327E2  -5.904858477915489E1   1.609691530145307E2  -5.911160947132250E1   1.574950956902711E2  -4.407578638850004E-1   1.374145110886991E2  
 1.115288220551379E9    -3.809355590605276E-1   1.177848401570973E2  -5.861885212954540E1   1.405454414052397E2  -5.802172337068230E1   1.369434173236072E2  -4.460969935154756E-1   1.235756029939216E2  
 1.120300751879699E9    -5.233226753750894E-1   1.042885695068113E2  -5.677898145655893E1   1.245491845255571E2  -5.824128891420968E1   1.151269144226483E2  -5.764468804621196E-1   1.076519954426186E2  
 1.125313283208020E9    -6.242897382877083E-1   8.656510195682169E1  -5.662053852870609E1   1.087675934059111E2  -5.732447896054458E1   1.017257676390584E2  -6.079714226371549E-1   9.271990933455975E1  
 1.130325814536341E9    -6.365320126985556E-1   7.153663825645479E1  -5.682441819387996E1   9.013077170715901E1  -5.776263688818032E1   8.604624907988782E1  -6.029321028503477E-1   7.747198261561867E1  
 1.135338345864662E9    -6.999982783692488E-1   5.550309690090293E1  -5.641403254729040E1   6.654783361308606E1  -5.689556457281277E1   6.805789422410605E1  -5.731884516251697E-1   6.060032854780214E1  
 1.140350877192982E9    -5.030614038456269E-1   3.958704130972227E1  -5.590258715074392E1   4.662958352894282E1  -5.664491714052959E1   5.298857111695595E1  -7.138947135318632E-1   4.592505247691894E1  
 1.145363408521303E9    -5.784579390715771E-1   2.026783454294185E1  -5.697274925039472E1   2.691903217771336E1  -5.850211755860077E1   3.337527082878372E1  -6.983296503206637E-1   2.729964366850124E1  
 1.150375939849624E9    -7.499895200027642E-1   6.475586381566073  -5.692638636964663E1   1.915388836554628E1  -5.847181232485170E1   2.245636109652814E1  -5.633624672680128E-1   1.179507507260096E1  
 1.155388471177945E9    -5.897299546468591E-1  -9.295794005003174  -5.820118778058804E1   5.529466215962700  -5.744839160614511E1   6.229254816666548  -7.318285433034601E-1  -4.486444709302938  
 1.160401002506266E9    -6.253895106145169E-1  -2.757583353380814E1  -5.973654098748885E1  -1.101935352181639E1  -5.893316579866767E1   3.411348064013196  -6.911283170683861E-1  -2.156885313961355E1  
 1.165413533834586E9    -3.868397506054080E-1  -4.238152575604418E1  -5.833260917084081E1  -1.103362521180720E1  -5.691420645973750E1  -1.388900230991656E1  -5.808241387520470E-1  -3.579194626069222E1  
 1.170426065162907E9    -3.678083664763283E-1  -5.931509442506586E1  -5.824156035047367E1  -2.474289240919308E1  -5.880953242614928E1  -2.678724489333139E1  -3.214126370409676E-1  -5.012172438110483E1  
 1.175438596491228E9    -3.382997029078070E-1  -7.412695823399473E1  -5.811980724473254E1  -4.172217866006768E1  -5.800572033932241E1  -3.504443025606794E1  -3.244876123031004E-1  -7.095813318927345E1  
 1.180451127819549E9    -3.855313807548718E-1  -8.811092691935609E1  -5.750618890259599E1  -4.356324022819709E1  -5.781725529373890E1  -6.009613931291671E1  -2.986371644234944E-1  -8.387677016910865E1  
 1.185463659147870E9    -4.870627584508984E-1  -1.050896440664709E2  -5.752342063356450E1  -6.234728468696265E1  -5.700876817861122E1  -6.532728279398565E1  -4.605780623516109E-1  -9.865749335562377E1  
 1.190476190476191E9    -5.123680013400340E-1  -1.190145292260571E2  -5.670280617027691E1  -7.949404788840700E1  -5.721343214035347E1  -7.624832694590258E1  -5.153354305374099E-1  -1.150710084658186E2  
 1.195488721804511E9    -4.221869371597050E-1  -1.353018963247901E2  -5.595708884199058E1  -9.667443984592208E1  -5.680073516873316E1  -1.000392946549078E2  -5.075015234179453E-1  -1.309930564687089E2  
 1.200501253132832E9    -4.849504157656747E-1  -1.493095865981308E2  -5.562976309787462E1  -1.106818970215243E2  -5.644592408420619E1  -1.101135199307550E2  -5.592876708977876E-1  -1.448050478142999E2  
 1.205513784461153E9    -6.791749637705287E-1  -1.644234640215840E2  -5.588878322026234E1  -1.325938252540775E2  -5.635870001059367E1  -1.242426421995955E2  -7.816265521402579E-1  -1.602167232669604E2  
 1.210526315789474E9    -6.689978846261135E-1  -1.782551599851298E2  -5.551633537274374E1  -1.421371373623441E2  -5.608234826688385E1  -1.475496803801017E2  -7.019085898270845E-1  -1.735704621385430E2  
 1.215538847117795E9    -5.784031200961078E-1   1.648746233501834E2  -5.542440967112000E1  -1.630327387406191E2  -5.522510436619893E1  -1.609161035954027E2  -6.667642319664345E-1   1.704635686517806E2  
 1.220551378446115E9    -6.739625129444462E-1   1.501942342821025E2  -5.476862476021005E1  -1.774026654976552E2  -5.426905893359202E1   1.779552812648184E2  -9.331130729404495E-1   1.559900502301251E2  
 1.225563909774436E9    -9.521766673464986E-1   1.350601633161928E2  -5.575926860729260E1   1.628781721648963E2  -5.415312477213695E1   1.655651076896490E2  -8.553483510697814E-1   1.395703611227732E2  
 1.230576441102757E9    -6.437631636875701E-1   1.198627860196369E2  -5.500443097428342E1   1.463526193920853E2  -5.622733248349743E1   1.486880959401932E2  -8.753766553856572E-1   1.246095636886146E2  
 1.235588972431078E9    -6.419081525949724E-1   1.006798268705316E2  -5.673786308922055E1   1.301569761379873E2  -5.590084300837553E1   1.232419772176415E2  -7.463246518925805E-1   1.084105127470704E2  
 1.240601503759399E9    -4.926690052782936E-1   8.169776931261063E1  -5.713795277304407E1   1.249510700513674E2  -5.729685425493189E1   1.176097267821619E2  -6.130194702064998E-1   9.303559643919928E1  
 1.245614035087719E9    -4.983169588512432E-1   6.997597255146562E1  -5.649976797804018E1   1.033170417719857E2  -5.666189751823955E1   1.016906844441168E2  -5.932601776635410E-1   7.169773387571895E1  
 1.250626566416040E9    -3.494208743629758E-1   5.377106065262738E1  -5.745263452070459E1   9.464708406033564E1  -5.878894785992224E1   9.822731855810339E1  -5.203775944148084E-1   5.950677847250702E1  
 1.255639097744361E9    -5.512637195821413E-1   3.742900969725373E1  -5.774456676180870E1   7.701139796009977E1  -5.767194781513672E1   8.965392794735659E1  -6.923728257798718E-1   4.132551232480294E1  
 1.260651629072682E9    -4.629286827614237E-1   2.170966682293053E1  -5.760200464979971E1   7.597941332051097E1  -5.920069249909898E1   6.677641563032867E1  -5.191416073518079E-1   2.397018136386478E1  
 1.265664160401002E9    -4.738421197501742E-1   3.588128768671021  -5.758469491303716E1   5.912633482450428E1  -5.727107305848077E1   6.344149652718786E1  -4.702141568244727E-1   7.325330210142073  
 1.270676691729323E9    -3.724556293417156E-1  -9.590280053147959  -5.699506253190038E1   5.320996954764939E1  -5.772092442394311E1   4.937930768338840E1  -3.962205646018163E-1  -7.973863140822890  
 1.275689223057644E9    -4.580748415996235E-1  -2.825156009787064E1  -5.563232798517593E1   3.224500926373715E1  -5.631934568350461E1   3.839342911523274E1  -5.237307784445745E-1  -2.339731911751584E1  
 1.280701754385965E9    -5.693011978600699E-1  -4.547572056962551E1  -5.673796184979226E1   2.338162467370016E1  -5.766198268819939E1   3.453102193511354E1  -5.479710444985815E-1  -3.979655015386418E1  
 1.285714285714286E9    -7.810230159545317E-1  -5.711413611458237E1  -5.704091127120747E1   3.889815332547443  -5.623314687889435E1   7.774183844433781  -5.220031853330462E-1  -5.315806186122118E1  
 1.290726817042607E9    -6.489117756109591E-1  -7.280796513162029E1  -5.597365041526352E1  -4.306269193652097  -5.594200014558962E1  -7.419144414570837  -6.589056415574003E-1  -7.002470342967669E1  
 1.295739348370927E9    -6.384164957761458E-1  -8.811027660317787E1  -5.650990825384261E1  -1.659500476928175E1  -5.472402842894353E1  -2.851445389025516E1  -6.690114012616786E-1  -8.570338661124185E1  
 1.300751879699248E9    -5.299037131854613E-1  -1.037767470036947E2  -5.515797689282552E1  -3.384011254703238E1  -5.470592964972363E1  -2.967812293528932E1  -6.301806787859472E-1  -9.804942759921825E1  
 1.305764411027569E9    -7.389820739143360E-1  -1.192993109748152E2  -5.539939919109190E1  -4.520196096115553E1  -5.466781815051031E1  -4.990919497409650E1  -7.286122898297309E-1  -1.143505188867170E2  
 1.310776942355890E9    -6.518577169534685E-1  -1.346051250338346E2  -5.496555492339378E1  -6.876226132318345E1  -5.433442040424632E1  -7.017197904421570E1  -8.760526906661897E-1  -1.293891176962627E2  
 1.315789473684211E9    -5.351241290265286E-1  -1.510485730761870E2  -5.473354049136938E1  -8.295036966221348E1  -5.472707856471355E1  -9.269139175402195E1  -8.165823704531395E-1  -1.435111481397557E2  
 1.320802005012531E9    -7.902274925780133E-1  -1.677159070924960E2  -5.387349204847538E1  -9.644830347612748E1  -5.517657959034298E1  -9.956102242823386E1  -6.352627536710506E-1  -1.590267418313039E2  
 1.325814536340852E9    -5.209851349116603E-1   1.752082626193957E2  -5.416548124561342E1  -1.087098103236667E2  -5.505256828911145E1  -1.136699156804498E2  -7.052471627277943E-1  -1.768573128552802E2  
 1.330827067669173E9    -6.122222669635747E-1   1.606134165056403E2  -5.551011967627715E1  -1.249284111054939E2  -5.579478500252381E1  -1.276570867648579E2  -8.682583958051426E-1   1.664662691393208E2  
 1.335839598997494E9    -6.250627057979027E-1   1.441880065267417E2  -5.427140278787255E1  -1.410774503544477E2  -5.506716204461370E1  -1.460828557100338E2  -8.391439255164630E-1   1.540374128002793E2  
 1.340852130325815E9    -6.276059504483462E-1   1.274266080560241E2  -5.540799889548004E1  -1.556993572247295E2  -5.601568605386915E1  -1.537152046714053E2  -1.104192029322817   1.366745445916674E2  
 1.345864661654135E9    -8.033325659233394E-1   1.136864252282573E2  -5.525125321520692E1  -1.741631413472870E2  -5.629477141838263E1  -1.683466686932037E2  -1.103211898275870   1.179717875443115E2  
 1.350877192982456E9    -7.005526652346589E-1   9.757403402802196E1  -5.557194667474290E1  -1.775637415172669E2  -5.536751546772236E1   1.793979857544180E2  -8.652800422942157E-1   1.021915555532741E2  
 1.355889724310777E9    -6.816343286751289E-1   8.507001382701967E1  -5.553898027128646E1   1.658229843709004E2  -5.538759282356901E1   1.733956865934487E2  -6.836950738318242E-1   8.782827619540691E1  
 1.360902255639098E9    -7.832959747299058E-1   6.905279746826493E1  -5.514613449393747E1   1.534624891657479E2  -5.480072212877084E1   1.600366465342596E2  -7.985812289502501E-1   7.168794573624045E1  
 1.365914786967419E9    -6.693294276946662E-1   5.259123888214494E1  -5.499764428407879E1   1.418742209458071E2  -5.423909290298283E1   1.476230801881808E2  -7.701349814019419E-1   5.735385092643783E1  
 1.370927318295739E9    -6.852977609484959E-1   3.810472258823988E1  -5.431056094366726E1   1.269371410930484E2  -5.395647800074993E1   1.316085358220062E2  -7.696797120568671E-1   4.131172628192579E1  
 1.375939849624060E9    -6.819203963367314E-1   2.106077507638781E1  -5.415691721779416E1   1.115166811718891E2  -5.327173265731163E1   1.196145513302046E2  -6.442396375262353E-1   2.587852770058095E1  
 1.380952380952381E9    -9.680459115956386E-1   5.744396464399258  -5.306729057267756E1   1.026776841955612E2  -5.318628301382166E1   1.031698723807949E2  -5.872674148632273E-1   9.635156725333879  
 1.385964912280702E9    -8.582775859439994E-1  -1.218040419947258E1  -5.274747507240722E1   8.567842204049583E1  -5.193709602539876E1   8.357436300158109E1  -6.319667963073317E-1  -4.341491952896766  
 1.390977443609023E9    -8.413613620423237E-1  -2.724406104365096E1  -5.278205789763720E1   6.858981720095821E1  -5.203177237610489E1   6.663736574656541E1  -7.884120122765033E-1  -2.058602368068179E1  
 1.395989974937343E9    -7.769480121514215E-1  -4.289695913537548E1  -5.173098940056606E1   5.144119546176285E1  -5.208418398570375E1   4.743481188602350E1  -8.525533302634466E-1  -3.652269737255138E1  
 1.401002506265664E9    -7.956773831012541E-1  -5.928755573403822E1  -5.174907731229659E1   3.395713431482611E1  -5.212838433125680E1   3.031828092306289E1  -8.164872188792781E-1  -5.238625125734330E1  
 1.406015037593985E9    -9.299431801682541E-1  -7.567638543447600E1  -5.187413177960680E1   1.575424848521733E1  -5.274526429841612E1   1.066548244920911E1  -8.748504315216411E-1  -6.800766282811745E1  
 1.411027568922306E9    -7.771289462312132E-1  -9.224286274055704E1  -5.192714061919786E1  -2.887740494181516  -5.385838740678610E1  -1.077756903813553  -8.393580549957426E-1  -8.242977744077741E1  
 1.416040100250627E9    -8.269027828909153E-1  -1.069105251083402E2  -5.241013095159759E1  -2.067662840159985E1  -5.403552845637493E1  -1.865687627563370E1  -9.160315043202847E-1  -9.907359284197685E1  
 1.421052631578947E9    -7.345089602633816E-1  -1.245244504410652E2  -5.312753595733376E1  -2.903421462943043E1  -5.370939324888212E1  -3.450421943158223E1  -8.112996463525177E-1  -1.142167989048052E2  
 1.426065162907268E9    -7.437056317646793E-1  -1.415815898391809E2  -5.352613538574362E1  -4.823427963169048E1  -5.380453618975231E1  -4.813474894643962E1  -1.039361386681692  -1.311192556594540E2  
 1.431077694235589E9    -7.835242497970804E-1  -1.560370109020383E2  -5.380316703389489E1  -5.971968897967449E1  -5.458842067405075E1  -5.104279143162950E1  -1.065871150404394  -1.482094754150103E2  
 1.436090225563910E9    -7.881721305091989E-1  -1.712013952459962E2  -5.457229634156622E1  -7.461022519960618E1  -5.451757780258470E1  -6.872429874265113E1  -8.794056895021650E-1  -1.626272832922781E2  
 1.441102756892231E9    -6.846748265311311E-1   1.740500987304995E2  -5.461867869243545E1  -8.558106628836733E1  -5.527703243047386E1  -7.212283520300252E1  -9.925702107758251E-1  -1.795352569710017E2  
 1.446115288220552E9    -7.074066843708728E-1   1.606371516570353E2  -5.411431230734613E1  -8.968804223576657E1  -5.423033089236520E1  -8.766773675362201E1  -1.024941404308145   1.651077209128006E2  
 1.451127819548872E9    -6.011975021901818E-1   1.465617480942080E2  -5.479733889470550E1  -1.009551460795920E2  -5.400121401462661E1  -1.025808559192473E2  -1.048987841701638   1.517623702816576E2  
 1.456140350877193E9    -7.458151704584426E-1   1.312408066450426E2  -5.361735057450382E1  -1.187950989933994E2  -5.324488674151506E1  -1.095415321443700E2  -1.114121579821374   1.349928628562285E2  
 1.461152882205514E9    -8.472278271647897E-1   1.142880172211986E2  -5.402182879865217E1  -1.328547438055053E2  -5.256745541203755E1  -1.274663355372103E2  -9.483308559187723E-1   1.191928426917534E2  
 1.466165413533835E9    -9.052167120728422E-1   1.001917785251416E2  -5.342923564071248E1  -1.436111913229757E2  -5.177358321293121E1  -1.462314197431106E2  -1.045644497471843   1.032374425873893E2  
 1.471177944862155E9    -9.712416909327946E-1   8.411834172702646E1  -5.207057571404489E1  -1.579153164909154E2  -5.202734174648948E1  -1.609448287397765E2  -9.700807074961091E-1   8.990410537703484E1  
 1.476190476190476E9    -1.094622974003383   6.922164288657024E1  -5.182633307918347E1  -1.740412655630435E2  -5.148800912519739E1   1.795120453855553E2  -1.175167706875359   7.477773557116160E1  
 1.481203007518797E9    -9.979029390209665E-1   5.150164528542946E1  -5.127943271872537E1   1.639680652377892E2  -5.181367751378527E1   1.653630688554118E2  -1.139142346213413   5.953839559244459E1  
 1.486215538847118E9    -1.140397003947498   3.551267803141637E1  -5.121998322590431E1   1.527018260675959E2  -5.201096279782939E1   1.467311897050144E2  -1.235153360637678   4.340649345051012E1  
