#  HZ   S   DB   R     50.0000 
! Rohde & Schwarz ZVA/B 
! 
! 
! 

 1.000000000000000E9    -7.643610204258037E-1  -1.384093364967875E2  
 1.005012531328321E9    -4.027622612254151E-1  -1.510521171712718E2  
 1.010025062656642E9    -6.548292975391111E-2  -1.674847151178884E2  
 1.015037593984963E9    -1.339211000338290E-1   1.764436010820895E2  
 1.020050125313283E9    -2.514777391907007E-1   1.656742945093320E2  
 1.025062656641604E9    -5.426766152123617E-1   1.479616817033152E2  
 1.030075187969925E9    -4.306945093610047E-1   1.317786199028921E2  
 1.035087719298246E9    -5.551789854459756E-1   1.190261339870511E2  
 1.040100250626566E9    -3.519760852451928E-1   1.024443620532026E2  
 1.045112781954887E9    -3.795154103838875E-1   8.921080031511573E1  
 1.050125313283208E9    -3.899849269812902E-1   7.393300458209232E1  
 1.055137844611529E9    -5.082624443336576E-1   5.871722272302556E1  
 1.060150375939850E9    -4.848983062726340E-1   4.413095691772890E1  
 1.065162907268171E9    -5.080192723921368E-1   2.782069058823255E1  
 1.070175438596491E9    -5.150620953026763E-1   1.347816743418612E1  
 1.075187969924812E9    -6.475870131526732E-1  -3.671510756889126  
 1.080200501253133E9    -4.896966980899709E-1  -1.834605706037912E1  
 1.085213032581454E9    -5.588791492202847E-1  -3.677506420916653E1  
 1.090225563909775E9    -4.743068359652175E-1  -4.929655372080538E1  
 1.095238095238095E9    -7.250242723734445E-1  -6.690240635468801E1  
 1.100250626566416E9    -5.446628115473771E-1  -7.778621822253216E1  
 1.105263157894737E9    -5.086251532201623E-1  -9.612989556842395E1  
 1.110275689223058E9    -4.120064267029998E-1  -1.115355225216949E2  
 1.115288220551379E9    -4.037422392175646E-1  -1.233227075066659E2  
 1.120300751879699E9    -2.682275912948980E-1  -1.431618053208681E2  
 1.125313283208020E9    -3.808802751070671E-1  -1.528755587387014E2  
 1.130325814536341E9    -4.051849071986158E-1  -1.712709913180835E2  
 1.135338345864662E9    -3.027462972820919E-1   1.746711025473612E2  
 1.140350877192982E9    -4.483329549228834E-1   1.606718443337683E2  
 1.145363408521303E9    -3.734230955860403E-1   1.454373080268999E2  
 1.150375939849624E9    -5.139755784722784E-1   1.313853253388898E2  
 1.155388471177945E9    -4.584674156503297E-1   1.153022501578862E2  
 1.160401002506266E9    -6.056418955261181E-1   1.010868968121498E2  
 1.165413533834586E9    -5.059979931482133E-1   8.751261499553054E1  
 1.170426065162907E9    -6.173587138841633E-1   6.958641977445015E1  
 1.175438596491228E9    -8.782941813954192E-1   5.554763345844886E1  
 1.180451127819549E9    -6.758869433515501E-1   3.794339070518058E1  
 1.185463659147870E9    -7.159233327080019E-1   2.461400155238752E1  
 1.190476190476191E9    -7.178524737980769E-1   8.696831118823377  
 1.195488721804511E9    -3.414313231614652E-1  -8.724926866708051  
 1.200501253132832E9    -3.269994311991309E-1  -2.448728717185955E1  
 1.205513784461153E9    -3.302372376448420E-1  -4.035993035078534E1  
 1.210526315789474E9    -4.198569405054748E-1  -5.422429135840164E1  
 1.215538847117795E9    -3.654036644360104E-1  -6.832286849578884E1  
 1.220551378446115E9    -4.452751466553597E-1  -8.344584721182692E1  
 1.225563909774436E9    -2.668486728538665E-1  -9.760148341169649E1  
 1.230576441102757E9    -4.394219141421286E-1  -1.143649496870935E2  
 1.235588972431078E9    -5.341993264856085E-1  -1.268568788398063E2  
 1.240601503759399E9    -4.981372585676210E-1  -1.425110033984179E2  
 1.245614035087719E9    -6.551981156935065E-1  -1.560725285573510E2  
 1.250626566416040E9    -4.902156190239270E-1  -1.711180972327488E2  
 1.255639097744361E9    -6.802921154004463E-1   1.739083169737328E2  
 1.260651629072682E9    -7.131312257880446E-1   1.599422331671511E2  
 1.265664160401002E9    -6.949964303216868E-1   1.429363097428987E2  
 1.270676691729323E9    -6.076265748388068E-1   1.274352063291837E2  
 1.275689223057644E9    -6.856283525553409E-1   1.143578918655849E2  
 1.280701754385965E9    -6.856071605089584E-1   9.813792088277083E1  
 1.285714285714286E9    -5.239402759748627E-1   8.062586129465531E1  
 1.290726817042607E9    -4.670623629759907E-1   6.561123195333602E1  
 1.295739348370927E9    -6.236467316272567E-1   4.891128007368497E1  
 1.300751879699248E9    -5.061688516149585E-1   3.264883260367517E1  
 1.305764411027569E9    -4.094170399212052E-1   1.675631538203966E1  
 1.310776942355890E9    -4.629774311752242E-1   4.753633673532775  
 1.315789473684211E9    -5.941677739442007E-1  -1.149256162259312E1  
 1.320802005012531E9    -7.160649320921159E-1  -2.538488234092359E1  
 1.325814536340852E9    -6.063243776291664E-1  -4.208222509829562E1  
 1.330827067669173E9    -5.430026092804171E-1  -5.686596396355214E1  
 1.335839598997494E9    -4.953783895503768E-1  -6.996976145515798E1  
 1.340852130325815E9    -6.501803958822818E-1  -8.533967784872445E1  
 1.345864661654135E9    -7.015966185068748E-1  -9.852623006543017E1  
 1.350877192982456E9    -6.016287976693222E-1  -1.166328241667697E2  
 1.355889724310777E9    -7.354806898947980E-1  -1.307106696024021E2  
 1.360902255639098E9    -7.162535908092428E-1  -1.455866681154388E2  
 1.365914786967419E9    -7.700628493721172E-1  -1.613814427430569E2  
 1.370927318295739E9    -9.265655661621202E-1  -1.746550152034134E2  
 1.375939849624060E9    -8.441662527399512E-1   1.683295662999522E2  
 1.380952380952381E9    -8.514116123138723E-1   1.511117107085927E2  
 1.385964912280702E9    -7.000535601254079E-1   1.396491356516743E2  
 1.390977443609023E9    -8.554008466164254E-1   1.225469222556308E2  
 1.395989974937343E9    -8.625387909969151E-1   1.063614911487567E2  
 1.401002506265664E9    -9.043770925228617E-1   9.127727177613022E1  
 1.406015037593985E9    -8.123164087364624E-1   7.671897528722310E1  
 1.411027568922306E9    -7.640840624231037E-1   6.098526541255261E1  
 1.416040100250627E9    -8.061811566397226E-1   4.630568882668337E1  
 1.421052631578947E9    -8.489799003069330E-1   3.001573323324961E1  
 1.426065162907268E9    -8.519249538631692E-1   1.890552201167932E1  
 1.431077694235589E9    -9.411660306722351E-1   3.047918525613149  
 1.436090225563910E9    -7.765506946979053E-1  -1.329110473410356E1  
 1.441102756892231E9    -8.710461365178257E-1  -2.438019846579567E1  
 1.446115288220552E9    -9.759252027284567E-1  -4.367771913133992E1  
 1.451127819548872E9    -9.184998520948841E-1  -5.888020168153477E1  
 1.456140350877193E9    -8.999628420697207E-1  -7.227607106393251E1  
 1.461152882205514E9    -9.335234699609206E-1  -8.870034627723184E1  
 1.466165413533835E9    -8.895798408068011E-1  -1.071165772947716E2  
 1.471177944862155E9    -9.485598439075208E-1  -1.189443437992154E2  
 1.476190476190476E9    -1.089327536388982  -1.367073528351004E2  
 1.481203007518797E9    -9.893359240600831E-1  -1.510027657114872E2  
 1.486215538847118E9    -9.908411673690197E-1  -1.667181974664798E2  
 1.491228070175439E9    -8.969141276001637E-1   1.783312216411387E2  
 1.496240601503759E9    -7.888372779407803E-1   1.642184340106929E2  
 1.501253132832080E9    -9.398808444477829E-1   1.520364461020086E2  
 1.506265664160401E9    -9.775710849140903E-1   1.346954099082323E2  
 1.511278195488722E9    -1.116804962198448   1.218804056398806E2  
 1.516290726817043E9    -1.040603531392389   1.087327888761808E2  
 1.521303258145363E9    -1.184356133472961   9.376134296922561E1  
 1.526315789473684E9    -1.170988052858692   7.715086191566898E1  
 1.531328320802005E9    -1.303217166794203   6.442086466015186E1  
 1.536340852130326E9    -1.288032824794587   4.968241847099889E1  
 1.541353383458647E9    -1.196164126867019   3.388655917400421E1  
 1.546365914786967E9    -1.111514493544288   1.598772376771513E1  
 1.551378446115288E9    -1.178420489573051   1.771578334273967  
 1.556390977443609E9    -1.149742999516558  -1.369386937386900E1  
 1.561403508771930E9    -1.008099681552873  -3.037412522490461E1  
 1.566416040100251E9    -1.087306749952555  -4.656667692080473E1  
 1.571428571428572E9    -9.935215213737612E-1  -6.348024648147030E1  
 1.576441102756892E9    -9.180258463633833E-1  -7.943346406480579E1  
 1.581453634085213E9    -9.762729023943648E-1  -9.261462790961457E1  
 1.586466165413534E9    -1.049231448182346  -1.066579695508096E2  
 1.591478696741855E9    -1.041178085760868  -1.229998996470878E2  
 1.596491228070175E9    -1.086133956474416  -1.399084592981079E2  
 1.601503759398496E9    -1.149908846340790  -1.521541470355133E2  
 1.606516290726817E9    -1.248117251644242  -1.625798269431651E2  
 1.611528822055138E9    -1.171814794084230  -1.781761739771922E2  
 1.616541353383459E9    -1.126339608244155   1.690311507349727E2  
 1.621553884711780E9    -1.074538136386803   1.533769004257009E2  
 1.626566416040100E9    -1.042589022412610   1.384119160683297E2  
 1.631578947368421E9    -8.984487610543013E-1   1.237975571944601E2  
 1.636591478696742E9    -9.520671473760967E-1   1.078853991683181E2  
 1.641604010025063E9    -9.275602642277263E-1   9.166752850075190E1  
 1.646616541353384E9    -8.862630591743969E-1   7.692334540466369E1  
 1.651629072681704E9    -1.166070650403240   5.969588967642888E1  
 1.656641604010025E9    -1.128597604315447   4.531486980623566E1  
 1.661654135338346E9    -1.165554641584322   2.735829365242871E1  
 1.666666666666667E9    -1.103041519263770   1.224540280414998E1  
 1.671679197994988E9    -1.047267231730698  -4.087462048894311  
 1.676691729323309E9    -1.120676149668132  -2.044046428286855E1  
 1.681704260651629E9    -1.161887460892566  -3.336309041180171E1  
 1.686716791979950E9    -9.688434016831112E-1  -5.050018674384516E1  
 1.691729323308271E9    -9.235951141759483E-1  -6.114647012368383E1  
 1.696741854636591E9    -1.011124867284960  -7.789597233013561E1  
 1.701754385964912E9    -7.931266854913306E-1  -9.302556184623272E1  
 1.706766917293233E9    -7.812258771482666E-1  -1.071683356555009E2  
 1.711779448621554E9    -7.908803336063617E-1  -1.241591876270780E2  
 1.716791979949875E9    -5.715445878778018E-1  -1.355683942105491E2  
 1.721804511278195E9    -7.626083544701977E-1  -1.507433766311966E2  
 1.726817042606516E9    -8.100063503264914E-1  -1.664717217496059E2  
 1.731829573934837E9    -8.716278346726486E-1   1.792938316307631E2  
 1.736842105263158E9    -9.521042919073018E-1   1.638958953127034E2  
 1.741854636591479E9    -1.084731292609785   1.491044637608844E2  
 1.746867167919800E9    -1.036462982955558   1.339784789093329E2  
 1.751879699248120E9    -1.108926147088275   1.196890682974631E2  
 1.756892230576441E9    -1.032912896259527   1.030415766015590E2  
 1.761904761904762E9    -1.055545318742545   8.658263537460684E1  
 1.766917293233083E9    -1.048058606347428   7.137870988439592E1  
 1.771929824561404E9    -9.946451504611001E-1   5.386915453876303E1  
 1.776942355889724E9    -7.937256298018672E-1   3.976709621822963E1  
 1.781954887218045E9    -8.080315439992521E-1   2.624372840142068E1  
 1.786967418546366E9    -6.379148960283205E-1   1.186450677744446E1  
 1.791979949874687E9    -6.786952005154858E-1  -5.853026127307093  
 1.796992481203008E9    -6.305037753042485E-1  -2.131306393095709E1  
 1.802005012531328E9    -6.243364602768038E-1  -3.557727303513661E1  
 1.807017543859649E9    -7.128632163300005E-1  -5.090370686884752E1  
 1.812030075187970E9    -7.451981397058519E-1  -6.597157404035872E1  
 1.817042606516291E9    -8.627178636158185E-1  -8.149764626750212E1  
 1.822055137844612E9    -9.419653811157986E-1  -9.687827921552284E1  
 1.827067669172932E9    -9.326329726742617E-1  -1.106205410026003E2  
 1.832080200501253E9    -1.226962314965999  -1.252067214938675E2  
 1.837092731829574E9    -1.225225549734994  -1.396396471333616E2  
 1.842105263157895E9    -1.124367277173114  -1.556386985973802E2  
 1.847117794486216E9    -1.116144296655465  -1.685940179903543E2  
 1.852130325814536E9    -1.191328446564037   1.735025366058023E2  
 1.857142857142857E9    -8.966606731383634E-1   1.586257363750495E2  
 1.862155388471178E9    -7.511446529824085E-1   1.429385670583630E2  
 1.867167919799499E9    -8.566062390356090E-1   1.281793451325835E2  
 1.872180451127820E9    -7.761333729761477E-1   1.128823419242181E2  
 1.877192982456141E9    -8.084087928715847E-1   9.938349237925183E1  
 1.882205513784461E9    -8.534559051846719E-1   8.306914792141218E1  
 1.887218045112782E9    -7.581090776127736E-1   6.928273424373587E1  
 1.892230576441103E9    -6.339880648674376E-1   5.427286175415264E1  
 1.897243107769424E9    -6.511912657087875E-1   4.020297675767205E1  
 1.902255639097745E9    -7.388728866478804E-1   2.495080269321117E1  
 1.907268170426065E9    -8.382971549883801E-1   8.733251855454391  
 1.912280701754386E9    -9.167166840195569E-1  -6.861734308685083  
 1.917293233082707E9    -1.012156376158183  -2.035229635040501E1  
 1.922305764411027E9    -1.081240157797487  -3.662805625769126E1  
 1.927318295739348E9    -1.059375535079293  -5.231377038902639E1  
 1.932330827067669E9    -8.230313647299541E-1  -6.718096335218777E1  
 1.937343358395990E9    -9.851577463418876E-1  -8.307937779843113E1  
 1.942355889724311E9    -8.855340933905593E-1  -9.936875321662278E1  
 1.947368421052632E9    -7.714926242039507E-1  -1.145395337413465E2  
 1.952380952380952E9    -8.191030313938192E-1  -1.315273072155032E2  
 1.957393483709273E9    -7.821431305221871E-1  -1.467711913982583E2  
 1.962406015037594E9    -8.222787670034040E-1  -1.598469402771592E2  
 1.967418546365915E9    -6.979265491625696E-1  -1.777914379340564E2  
 1.972431077694236E9    -6.973700934941425E-1   1.726069276638104E2  
 1.977443609022556E9    -6.963209234478200E-1   1.543860535728960E2  
 1.982456140350877E9    -6.425665741966008E-1   1.409696575095540E2  
 1.987468671679198E9    -7.200828352170560E-1   1.276032574130988E2  
 1.992481203007519E9    -6.616773587309656E-1   1.132748620207187E2  
 1.997493734335840E9    -7.492678623307337E-1   9.764134716258705E1  
 2.002506265664161E9    -8.204444940679696E-1   8.348765197824727E1  
 2.007518796992481E9    -8.552332072415149E-1   6.761233551465001E1  
 2.012531328320802E9    -7.705456241691457E-1   5.389716147055272E1  
 2.017543859649123E9    -9.351084181193865E-1   3.609460947241266E1  
 2.022556390977444E9    -9.610569277319060E-1   2.355600548759870E1  
 2.027568922305764E9    -8.141894238974636E-1   3.931265675343791  
 2.032581453634085E9    -9.712442948389963E-1  -1.158145166749038E1  
 2.037593984962406E9    -9.419712489123427E-1  -2.701977833533408E1  
 2.042606516290727E9    -8.341410486330593E-1  -4.337659797719428E1  
 2.047619047619048E9    -7.544792032013447E-1  -6.001094925147586E1  
 2.052631578947369E9    -7.197034327022097E-1  -7.527966515244791E1  
 2.057644110275689E9    -8.174931986043356E-1  -9.155369702671618E1  
 2.062656641604010E9    -6.990133449375194E-1  -1.058167663778924E2  
 2.067669172932331E9    -7.954050403757133E-1  -1.208413726977011E2  
 2.072681704260652E9    -5.755318722958130E-1  -1.351545222705451E2  
 2.077694235588973E9    -7.521122626596317E-1  -1.483196735277141E2  
 2.082706766917293E9    -7.352447043246231E-1  -1.642506265985420E2  
 2.087719298245614E9    -7.776142815053672E-1  -1.778987298699859E2  
 2.092731829573935E9    -8.045858051188777E-1   1.692365129527376E2  
 2.097744360902256E9    -9.744603158453573E-1   1.556464068280039E2  
 2.102756892230577E9    -1.021481323055102   1.407521273586108E2  
 2.107769423558897E9    -9.643329232668091E-1   1.264556073749561E2  
 2.112781954887218E9    -1.103235060414461   1.124588501761541E2  
 2.117794486215539E9    -1.107819206416175   9.747798673208277E1  
 2.122807017543860E9    -1.054229306846550   7.965898519179686E1  
 2.127819548872181E9    -8.599292482323775E-1   6.551068424451073E1  
 2.132832080200501E9    -7.546165046172746E-1   4.745641554088608E1  
 2.137844611528822E9    -7.887545008735436E-1   3.238917306790653E1  
 2.142857142857143E9    -6.907180021554784E-1   1.451564196976316E1  
 2.147869674185464E9    -5.935908078232074E-1  -1.358416205652513  
 2.152882205513784E9    -6.113493051196276E-1  -1.732906824366929E1  
 2.157894736842105E9    -7.514327568941502E-1  -3.413877099962032E1  
 2.162907268170426E9    -6.380282257545307E-1  -4.900165363194483E1  
 2.167919799498747E9    -7.417881322862800E-1  -6.499434002836978E1  
 2.172932330827067E9    -7.429608462024433E-1  -7.981094651408122E1  
 2.177944862155389E9    -8.411104167046601E-1  -9.451260838353272E1  
 2.182957393483709E9    -8.754473693879938E-1  -1.083712201596090E2  
 2.187969924812030E9    -9.074919425815342E-1  -1.220272246737252E2  
 2.192982456140351E9    -1.030375932032595  -1.364330792375027E2  
 2.197994987468672E9    -1.029282950825522  -1.521006841307479E2  
 2.203007518796992E9    -1.001532267442276  -1.661115193464413E2  
 2.208020050125313E9    -9.535280238056785E-1   1.771253223354114E2  
 2.213032581453634E9    -9.567907354988861E-1   1.637069266277962E2  
 2.218045112781955E9    -8.920549452502029E-1   1.481403062882217E2  
 2.223057644110276E9    -8.537517022417781E-1   1.337075310696407E2  
 2.228070175438597E9    -9.826981585364806E-1   1.171901509971487E2  
 2.233082706766917E9    -8.991067147973209E-1   1.017468281902348E2  
 2.238095238095238E9    -8.908259172851163E-1   8.650980697917318E1  
 2.243107769423559E9    -8.406253819452583E-1   7.199421513313102E1  
 2.248120300751880E9    -1.003033005391539   5.502984693639453E1  
 2.253132832080200E9    -9.892301108647372E-1   4.015569998492384E1  
 2.258145363408522E9    -1.008376520211942   2.777840240105071E1  
 2.263157894736842E9    -9.795776622702204E-1   1.187328276386148E1  
 2.268170426065163E9    -1.067814343502908  -3.259399188824842  
 2.273182957393484E9    -1.174357010667061  -1.784675392371730E1  
 2.278195488721805E9    -1.189712214606000  -3.149834498308330E1  
 2.283208020050125E9    -1.198964301384039  -4.757519906362188E1  
 2.288220551378446E9    -1.115656158006359  -6.362570733183337E1  
 2.293233082706767E9    -1.141252166677558  -7.947645910401599E1  
 2.298245614035088E9    -9.614818739459401E-1  -9.294556229982256E1  
 2.303258145363409E9    -1.074083009376208  -1.105202636637087E2  
 2.308270676691730E9    -9.380532707965007E-1  -1.244747289434832E2  
 2.313283208020050E9    -1.072805675254583  -1.427739258417401E2  
 2.318295739348371E9    -9.090291963389890E-1  -1.570432282354434E2  
 2.323308270676692E9    -1.029486293004438  -1.738970005150012E2  
 2.328320802005013E9    -1.096948789712726   1.718720502629538E2  
 2.333333333333334E9    -1.210739587116342   1.579635021829377E2  
 2.338345864661655E9    -1.082885835344461   1.429491740442410E2  
 2.343358395989975E9    -1.131251659171360   1.299768167041802E2  
 2.348370927318296E9    -1.129174677725022   1.150559714483389E2  
 2.353383458646617E9    -1.116902865416078   1.010869683186634E2  
 2.358395989974937E9    -1.170664022266165   8.790796041551482E1  
 2.363408521303258E9    -1.061270124984807   7.302733045723822E1  
 2.368421052631579E9    -9.990224800175899E-1   5.819765459542650E1  
 2.373433583959900E9    -1.037552186860770   4.359783361962273E1  
 2.378446115288220E9    -1.018211469092445   2.990533539484887E1  
 2.383458646616541E9    -9.757271258872846E-1   1.176265454429614E1  
 2.388471177944862E9    -1.061718219755008  -3.718197094370408  
 2.393483709273183E9    -1.050512834346859  -1.890147556413526E1  
 2.398496240601504E9    -1.134957078453310  -3.617193738978383E1  
 2.403508771929825E9    -1.236234261041596  -5.258856500515375E1  
 2.408521303258145E9    -1.336046162551914  -6.867632483269399E1  
 2.413533834586466E9    -1.437595508227847  -8.553769882601908E1  
 2.418546365914787E9    -1.362283473195811  -1.007985873689393E2  
 2.423558897243108E9    -1.403513946723406  -1.151031816033533E2  
 2.428571428571428E9    -1.391751879538206  -1.298061434344695E2  
 2.433583959899750E9    -1.202618993224221  -1.462215709439941E2  
 2.438596491228070E9    -1.244797449795590  -1.588399870868248E2  
