#  HZ   S   DB   R     50.0000 
! Rohde & Schwarz ZVA/B 
! 
! 
! 

 1.000000000000000E9    -2.047184259202787E1   1.359262444538333E1  -5.823656393305513E-1   1.732905479063185E2  -5.338061185883063E-1   1.750057261564058E2  -3.422597901887914E1   3.524329823472440E1  
 1.005012531328321E9    -1.915739502734876E1  -6.062318907733832  -6.383335086549826E-1   1.634908096998563E2  -5.595121642239556E-1   1.647329004432559E2  -3.791293738150763E1   2.604388438811441E1  
 1.010025062656642E9    -1.854311576572177E1  -4.038189907199457E1  -5.383178167074283E-1   1.467283504556978E2  -5.623262890493771E-1   1.482195559856437E2  -3.456364236431447E1   7.387072389359075E1  
 1.015037593984963E9    -1.990819272038356E1  -7.949536840211123E1  -4.831864854477747E-1   1.341748472190771E2  -5.464538647323847E-1   1.353895608139786E2  -3.630009367663869E1  -1.600323828848078E1  
 1.020050125313283E9    -1.814678251301906E1  -1.111737471675867E2  -4.789221789348074E-1   1.193935187170052E2  -5.245931101896263E-1   1.214547736912815E2  -3.184499296176372E1  -1.019243989844872E2  
 1.025062656641604E9    -1.879063347840123E1  -1.383057201796759E2  -5.493403586142537E-1   1.057536586299028E2  -5.496893304982671E-1   1.076740436334379E2  -3.255529147835802E1  -1.433594730721961E2  
 1.030075187969925E9    -1.758483647876987E1  -1.726703744639438E2  -6.491822547975941E-1   9.071330648687426E1  -5.913289034897962E-1   9.530043236868630E1  -2.911195871936990E1  -1.597021554121910E2  
 1.035087719298246E9    -1.698069078657093E1   1.616555380527414E2  -7.334688893631176E-1   7.911600377870043E1  -6.089545755374125E-1   8.159011479425037E1  -2.659385657306984E1   1.792938626153123E2  
 1.040100250626566E9    -1.874707577763942E1   1.209097909567297E2  -7.378564649270494E-1   6.559248153380440E1  -6.250151099693572E-1   6.716783595377699E1  -2.353313118741791E1   1.254858287144798E2  
 1.045112781954887E9    -1.859917163193754E1   9.536672031533182E1  -6.946198920822185E-1   5.281332954670405E1  -6.069038976052525E-1   5.449489688509741E1  -2.664307701700681E1   1.247462838242072E2  
 1.050125313283208E9    -1.937691190796652E1   5.914574305181193E1  -5.920204162708448E-1   4.031150925957008E1  -5.529490221546733E-1   4.135354139709079E1  -2.343352833091454E1   1.055490945223523E2  
 1.055137844611529E9    -1.833607012131878E1   2.553681970371458E1  -4.946128476560500E-1   2.594165958600760E1  -5.120464247809207E-1   2.566168720972048E1  -2.653364990837456E1   7.786707518014327E1  
 1.060150375939850E9    -2.260452236489416E1  -2.529251303368270E1  -4.237573064545206E-1   1.246205238225111E1  -4.790526271256798E-1   1.251723807855989E1  -2.565109944167751E1   3.587590180821987E1  
 1.065162907268171E9    -2.064974225647778E1  -5.900687820657252E1  -4.280239347036181E-1  -1.725278673052977  -4.905757572682957E-1  -2.047042091827839  -2.921960439783670E1   1.751469192113340E1  
 1.070175438596491E9    -2.073594990769006E1  -9.099356038749428E1  -5.262843065879742E-1  -1.610802557229210E1  -5.061342728377050E-1  -1.554622217070236E1  -2.738012352576328E1  -4.138558122633457E1  
 1.075187969924812E9    -1.896927841887547E1  -1.438182880787622E2  -6.714284810503398E-1  -3.124257940968796E1  -5.318249554115749E-1  -3.079090051127304E1  -2.313296881680230E1  -9.076263008228385E1  
 1.080200501253133E9    -1.789583649410429E1  -1.700775598630709E2  -7.198057371546115E-1  -4.369535790153486E1  -5.966270860577315E-1  -4.204559784514287E1  -2.379688073869779E1  -1.213227869201935E2  
 1.085213032581454E9    -1.918475481868684E1   1.598364713809952E2  -6.870379039981296E-1  -5.568506316028747E1  -6.201222423794509E-1  -5.503273656733421E1  -2.371680677962359E1  -1.590562004221181E2  
 1.090225563909775E9    -1.768249829357677E1   1.298337925380061E2  -6.068075604646726E-1  -6.896398698315461E1  -6.061795911721049E-1  -6.841815315121716E1  -2.090053459666177E1  -1.779257659103960E2  
 1.095238095238095E9    -1.728334435125321E1   8.582703495290521E1  -4.902144470137679E-1  -8.206056938595243E1  -5.231470309609611E-1  -8.187125900311216E1  -2.249718528876392E1   1.549064902734392E2  
 1.100250626566416E9    -1.756896527918252E1   6.165433390368089E1  -3.922022676450772E-1  -9.554487685930633E1  -4.938847418311779E-1  -9.638646603885471E1  -2.697557676885062E1   1.285081831373948E2  
 1.105263157894737E9    -1.893557518770857E1   2.259082687934030E1  -3.667735919239601E-1  -1.109430801680193E2  -4.515730526649892E-1  -1.094897431968820E2  -2.487309262796872E1   8.427292457479850E1  
 1.110275689223058E9    -1.825458126293788E1  -1.933758126661120E1  -4.523690816204848E-1  -1.253019137744794E2  -4.386420293536216E-1  -1.230793524436297E2  -2.905385621960281E1   4.583867083071927E1  
 1.115288220551379E9    -1.763036898387557E1  -5.629839248792972E1  -6.005854832603973E-1  -1.389029620386713E2  -5.146863143183600E-1  -1.377119924711631E2  -2.820421416120718E1  -2.690314458431967E1  
 1.120300751879699E9    -1.732894344664803E1  -8.033156180532194E1  -7.409994985775918E-1  -1.511165944764371E2  -5.552283175192917E-1  -1.517441720103526E2  -2.562116931958874E1  -8.640649057289851E1  
 1.125313283208020E9    -1.762264893005361E1  -1.102266500635699E2  -7.939351559076865E-1  -1.637925500436065E2  -6.129419045127418E-1  -1.631686612519693E2  -2.100200998667666E1  -1.096478495707755E2  
 1.130325814536341E9    -1.689356383354828E1  -1.426106691136097E2  -7.303196006416856E-1  -1.772383133825571E2  -6.242580050571699E-1  -1.769118407775041E2  -2.180888767958012E1  -1.399253468317667E2  
 1.135338345864662E9    -1.738269141878579E1  -1.794310235140774E2  -6.065222662297128E-1   1.695046986154385E2  -6.025524077179215E-1   1.700444428405534E2  -1.986672077603550E1  -1.626842991040941E2  
 1.140350877192982E9    -1.780344483676004E1   1.553050213064996E2  -4.891924174256853E-1   1.553252574315394E2  -5.257030129934773E-1   1.547007636424202E2  -1.997140255564598E1   1.719012163277130E2  
 1.145363408521303E9    -2.098193596434843E1   1.172455794332200E2  -4.177481643652939E-1   1.412721140360262E2  -4.600607581139788E-1   1.417452171827725E2  -2.000292481123517E1   1.519088295466620E2  
 1.150375939849624E9    -2.125241094651558E1   7.040626673647121E1  -4.354138171691616E-1   1.264097537772582E2  -4.384914206294284E-1   1.279442661825678E2  -1.990234248654330E1   1.161370391200439E2  
 1.155388471177945E9    -2.120539061122172E1   1.987969498313695E1  -5.272281455555168E-1   1.122625029931760E2  -4.660652319989742E-1   1.137243721558879E2  -2.208360161974032E1   6.520465661246426E1  
 1.160401002506266E9    -1.985130181498881E1  -2.702201792644635E1  -6.377289313900715E-1   1.002256421909409E2  -5.552962201782510E-1   9.975665274333592E1  -2.094266031798335E1   2.814851853242265E1  
 1.165413533834586E9    -1.860606802239213E1  -6.263186002945134E1  -6.664084402871356E-1   8.789698708178263E1  -6.671349613594882E-1   8.750892896233809E1  -2.140944993533848E1  -8.183556628286167  
 1.170426065162907E9    -1.781698399709295E1  -9.648103693271915E1  -6.464056490533364E-1   7.444431810157228E1  -7.079412934135663E-1   7.427119376862035E1  -1.950118703868281E1  -5.598825665508838E1  
 1.175438596491228E9    -1.731803163994775E1  -1.273453868464524E2  -5.614968860655454E-1   6.085745992279284E1  -7.115963081480938E-1   6.221004868313464E1  -1.893333884713419E1  -7.836612089817933E1  
 1.180451127819549E9    -1.603700374381107E1  -1.543718626613305E2  -4.523392081774858E-1   4.798933597995499E1  -6.197546601331958E-1   4.750463409342435E1  -1.955467562039230E1  -1.157342314186236E2  
 1.185463659147870E9    -1.727103307271169E1   1.770781943409676E2  -3.950317270064815E-1   3.183048839476014E1  -4.944549289162287E-1   3.316740772477645E1  -1.744451562212573E1  -1.451298570417599E2  
 1.190476190476191E9    -1.739683155533703E1   1.531728680654945E2  -4.042801132693795E-1   1.856138919168510E1  -4.602686535764092E-1   2.017006465840980E1  -1.835349218139599E1   1.769753287767045E2  
 1.195488721804511E9    -1.819174453805614E1   1.158971404270781E2  -4.821741259807694E-1   5.673907918334811  -4.509530678468819E-1   7.009066448260001  -2.145615526788579E1   1.600314179152763E2  
 1.200501253132832E9    -1.943930937761131E1   8.434860080828891E1  -5.746551693105356E-1  -8.413542817774236  -5.136794881767880E-1  -8.404866707529530  -2.483406815073954E1   1.058347053605882E2  
 1.205513784461153E9    -2.126914790227459E1   2.300559678103481E1  -6.040096037681595E-1  -2.273802892402791E1  -5.781421406138700E-1  -2.176296591475188E1  -2.354545051537746E1   5.875565415761553E1  
 1.210526315789474E9    -1.824718263461943E1  -8.425000281419019  -6.186721438109133E-1  -3.453077058726126E1  -6.390663828667602E-1  -3.530132306706859E1  -2.147641440710570E1   1.010923988236574E1  
 1.215538847117795E9    -1.783465264656489E1  -5.025144905773932E1  -5.825070631161311E-1  -4.814424924546988E1  -6.403405125098922E-1  -4.800563434621872E1  -2.228210937991173E1  -3.959725842351803E1  
 1.220551378446115E9    -1.720989958190226E1  -7.315045494202745E1  -4.802560890920459E-1  -6.158076250025770E1  -6.226598686664012E-1  -6.226908798975975E1  -1.882703469046324E1  -6.374654789062556E1  
 1.225563909774436E9    -1.801385057670811E1  -1.033633032671062E2  -4.214068347520332E-1  -7.656739914054994E1  -5.330930732296288E-1  -7.517104131262342E1  -1.746100423171416E1  -9.790873726802815E1  
 1.230576441102757E9    -1.886841359186216E1  -1.377723057653193E2  -4.142661410085714E-1  -8.947591769613186E1  -4.699255224565345E-1  -8.958772466783226E1  -1.819748299531321E1  -1.271326041566236E2  
 1.235588972431078E9    -1.918795279878367E1  -1.593668893710371E2  -4.515674981116108E-1  -1.014220179028055E2  -4.964472953435729E-1  -1.036149498986897E2  -1.868195074212551E1  -1.628625621821595E2  
 1.240601503759399E9    -1.988146558051835E1   1.528370742196871E2  -5.291573807750368E-1  -1.178501803564062E2  -5.377112871359762E-1  -1.185480755539258E2  -1.885619433630657E1   1.622825418414607E2  
 1.245614035087719E9    -2.197678338260239E1   1.265197172530322E2  -5.429476520479248E-1  -1.311170041957669E2  -6.249879440931445E-1  -1.324261723190124E2  -2.100219652266947E1   1.276331283258143E2  
 1.250626566416040E9    -2.296497801637664E1   7.053406518577526E1  -5.898091347068010E-1  -1.439907694041856E2  -6.493704186854108E-1  -1.435685076169520E2  -2.171310896760767E1   8.101059837337793E1  
 1.255639097744361E9    -1.915389064179879E1   2.974626727811109E1  -5.640840689004290E-1  -1.576481310131968E2  -6.779737584696980E-1  -1.562474329455883E2  -2.045140760040479E1   4.312205794297621E1  
 1.260651629072682E9    -1.867704901578023E1  -1.301566576079383E1  -4.973681252053205E-1  -1.697356056266797E2  -6.203411022364617E-1  -1.699123475995886E2  -1.953430740884741E1  -1.379483846917163  
 1.265664160401002E9    -1.676931060724729E1  -4.901722938485433E1  -4.562834994099414E-1   1.752783502852848E2  -5.755073415626846E-1   1.759799610554704E2  -1.914336973191515E1  -3.826085812308590E1  
 1.270676691729323E9    -1.766951876528939E1  -7.554608126728263E1  -4.448679185672846E-1   1.606659681850517E2  -5.390456826328279E-1   1.612746157763569E2  -1.793679728606909E1  -7.417745438369630E1  
 1.275689223057644E9    -1.814817971321608E1  -1.043803127345535E2  -4.754085136917984E-1   1.477112537489048E2  -4.886661706820363E-1   1.483077521959534E2  -1.781990431319649E1  -1.099305639435928E2  
 1.280701754385965E9    -1.752943524283187E1  -1.402491824958357E2  -5.530430809198740E-1   1.338427551814544E2  -5.248403428007311E-1   1.336171774897187E2  -1.869941662308759E1  -1.451333921903662E2  
 1.285714285714286E9    -1.817546048809733E1  -1.679108127403188E2  -5.849747134777609E-1   1.208383226199710E2  -6.223157715887809E-1   1.203019811095762E2  -1.872337365278276E1   1.796240071954177E2  
 1.290726817042607E9    -1.717845739256253E1   1.528210654181325E2  -5.978972700956311E-1   1.068784681221870E2  -6.666581448518466E-1   1.067334001651494E2  -1.989041036923995E1   1.373513732710277E2  
 1.295739348370927E9    -1.761819395575030E1   1.248473360559560E2  -5.987063129908929E-1   9.476993886467172E1  -6.674613227397596E-1   9.346853432374498E1  -1.985113052602168E1   9.421183180628924E1  
 1.300751879699248E9    -1.854925057940950E1   8.314181115619981E1  -5.837381461918377E-1   7.968510947875285E1  -6.748297770191721E-1   7.927000385665377E1  -1.881724059030404E1   5.207400459299817E1  
 1.305764411027569E9    -1.854736469547201E1   4.062665727805706E1  -5.579355463202138E-1   6.497308902224579E1  -6.497520482479858E-1   6.800467919541288E1  -1.735732636167093E1   8.571364254318292  
 1.310776942355890E9    -1.842627066128110E1   1.229134742607524E1  -5.448539986222097E-1   5.367491624344605E1  -6.669282472029763E-1   5.352147120763433E1  -1.658545606539499E1  -2.076220653965390E1  
 1.315789473684211E9    -1.821490703691374E1  -9.188368893614523  -5.316321104241207E-1   4.054712490841707E1  -6.618284040057990E-1   3.947904866131965E1  -1.637037504443810E1  -4.818010261277807E1  
 1.320802005012531E9    -1.936005178252196E1  -4.788770056593901E1  -5.277832880812106E-1   2.508364777425820E1  -6.641863373024486E-1   2.614352864442958E1  -1.522708743203452E1  -8.826757203510390E1  
 1.325814536340852E9    -1.900673416035683E1  -1.027015018404845E2  -5.389495325215015E-1   1.274934576181054E1  -7.016754574313110E-1   1.254875856832092E1  -1.642170566488111E1  -1.242004942187671E2  
 1.330827067669173E9    -1.921251707753655E1  -1.381227746972641E2  -5.685575242070842E-1  -2.264408982228553  -7.189337733302004E-1  -9.849576964572111E-1  -1.736813590075827E1  -1.555861036912666E2  
 1.335839598997494E9    -2.005629781125887E1  -1.756086986531527E2  -5.793152831663289E-1  -1.609523699655851E1  -7.252443658229090E-1  -1.333039752942345E1  -1.785066087373393E1   1.649498991999881E2  
 1.340852130325815E9    -1.901933864974026E1   1.503887793111025E2  -5.929621424703654E-1  -2.849626567611003E1  -7.388362701143293E-1  -2.770488965026885E1  -1.740836624028655E1   1.226632355769359E2  
 1.345864661654135E9    -1.797215005836337E1   1.202360970737814E2  -6.243927459846456E-1  -4.303205283992224E1  -7.138825711135782E-1  -4.207409477752191E1  -1.880657085366766E1   8.586412984295765E1  
 1.350877192982456E9    -1.865428687742744E1   8.102898035932080E1  -6.215067521636766E-1  -5.693609924775843E1  -7.329775032171666E-1  -5.417789184111275E1  -1.621685321137102E1   4.303950404593028E1  
 1.355889724310777E9    -1.841030800420575E1   4.804521371776374E1  -6.381934325407751E-1  -6.971051530533553E1  -7.324599683041833E-1  -6.824782364373102E1  -1.644993221354440E1   1.128986963567127E1  
 1.360902255639098E9    -1.821782603122314E1   1.818824147170945E1  -6.084908002032312E-1  -8.395863744242715E1  -7.733608940910459E-1  -8.346702628430543E1  -1.595389136188371E1  -2.800735958387902E1  
 1.365914786967419E9    -1.836513702404569E1  -2.631791763705450E1  -5.877315543488403E-1  -9.773153230466701E1  -7.915176322806813E-1  -9.666295510121293E1  -1.589530568740272E1  -6.565152554506076E1  
 1.370927318295739E9    -1.952991989607808E1  -6.509388179350086E1  -5.972309316576636E-1  -1.099786106293201E2  -7.786485322897774E-1  -1.095741289957671E2  -1.660177001409554E1  -9.932625828769598E1  
 1.375939849624060E9    -1.900222915906772E1  -1.006028748047840E2  -5.947573016362179E-1  -1.244350075146336E2  -7.946291045764522E-1  -1.235103760182872E2  -1.594750743694146E1  -1.389850328925152E2  
 1.380952380952381E9    -1.872705617495699E1  -1.374564646478018E2  -6.551363701482789E-1  -1.381550166617246E2  -7.947430305215790E-1  -1.373456223550440E2  -1.606258185406131E1   1.784541942189864E2  
 1.385964912280702E9    -1.709261126791613E1  -1.634213291578508E2  -7.247230028844152E-1  -1.514839208559295E2  -8.416248088489353E-1  -1.522993253411888E2  -1.529923602777101E1   1.437933534300533E2  
 1.390977443609023E9    -1.667910126088559E1   1.605019668174139E2  -7.601479268858554E-1  -1.658318603931812E2  -9.208841263868429E-1  -1.638778321459372E2  -1.567846722912892E1   1.093947154715034E2  
 1.395989974937343E9    -1.694706786040879E1   1.321611572565601E2  -7.931552830630938E-1  -1.785515123505108E2  -9.159946037562365E-1  -1.773937728876582E2  -1.443799943449890E1   7.729313273023305E1  
 1.401002506265664E9    -1.813403382102739E1   1.085245714763007E2  -7.697583718003938E-1   1.684394833987008E2  -9.309467347525813E-1   1.696473546613470E2  -1.466991633837579E1   4.464843303250979E1  
 1.406015037593985E9    -1.805872334328210E1   7.613430628686749E1  -7.219218969233889E-1   1.550065407835252E2  -9.193142754591227E-1   1.563401458928444E2  -1.501642631965048E1   4.380222152243070  
 1.411027568922306E9    -2.127704517495873E1   3.332854526055876E1  -6.847408130661010E-1   1.411461040708085E2  -8.805094160648992E-1   1.436735949228342E2  -1.527383009201163E1  -2.930284110994180E1  
 1.416040100250627E9    -2.265170690654994E1  -3.489376226877656  -6.667972612688634E-1   1.265801211350838E2  -8.713391130502983E-1   1.302773671563852E2  -1.562186130368179E1  -6.280793517811755E1  
 1.421052631578947E9    -2.235292834857737E1  -4.377737559835125E1  -7.077720965220371E-1   1.143628592840899E2  -8.549502633617827E-1   1.163804310456511E2  -1.522724371340110E1  -1.017459416299145E2  
 1.426065162907268E9    -2.089809807074436E1  -9.968114067754311E1  -7.536155888799290E-1   9.871076758809777E1  -8.853246461333488E-1   1.009471531967074E2  -1.576716634145293E1  -1.460886352180219E2  
 1.431077694235589E9    -1.961951327679440E1  -1.373809835629342E2  -8.044558083919737E-1   8.642738477775878E1  -9.320220398212845E-1   8.739990301452787E1  -1.529016482794064E1  -1.793544634610554E2  
 1.436090225563910E9    -1.777239969098116E1  -1.660833177255658E2  -8.474569336963104E-1   7.235630952132931E1  -9.956535619724347E-1   7.465369834900869E1  -1.499845916510997E1   1.429281201026275E2  
 1.441102756892231E9    -1.722989091149194E1   1.694813939443902E2  -8.665607487072436E-1   5.932328320997045E1  -1.018660479879495   6.094194818973655E1  -1.493184755528774E1   1.062307313088252E2  
 1.446115288220552E9    -1.623141504048742E1   1.481893646908787E2  -8.530156452381837E-1   4.798616435570204E1  -1.014494777518504   4.773148699722898E1  -1.556529311880678E1   7.320927486354493E1  
 1.451127819548872E9    -1.782951879622310E1   1.112229437028486E2  -8.069202392740477E-1   3.410510636164617E1  -9.569233188269460E-1   3.540871433679348E1  -1.534076807381862E1   4.238310862942390E1  
 1.456140350877193E9    -1.779346840626094E1   8.299503289059061E1  -7.579552577494951E-1   1.818207099337050E1  -9.124942783191127E-1   2.089073104117039E1  -1.598856732653984E1   1.406101068354071  
 1.461152882205514E9    -2.067693752484071E1   4.018734487574381E1  -7.641517537601515E-1   6.808354853977797  -8.643087227576390E-1   8.090418872527000  -1.650640928346683E1  -3.672093483008718E1  
 1.466165413533835E9    -2.111972220095762E1  -1.088160198433583E1  -7.676978389672188E-1  -7.869330749265466  -9.201268572217045E-1  -6.479330227069510  -1.685626088721006E1  -7.972745530343099E1  
 1.471177944862155E9    -2.165203673979958E1  -5.571110237359368E1  -8.335052881912808E-1  -2.316413454385942E1  -9.540242309085926E-1  -2.112405770717169E1  -1.698760224705528E1  -1.219863636143844E2  
 1.476190476190476E9    -1.911474474366976E1  -8.724482899356788E1  -9.038188466701742E-1  -3.541809211532108E1  -1.029310773283885  -3.421557738757144E1  -1.489588065162830E1  -1.586368933448529E2  
 1.481203007518797E9    -1.807168077580149E1  -1.175028564603728E2  -9.487804758750550E-1  -4.931287192260581E1  -1.060498776777445  -4.767858638287119E1  -1.546429654750548E1   1.686233975166253E2  
