#  HZ   S   DB   R     50.0000 
! Rohde & Schwarz ZVA/B 
! 
! 
! 

 1.000000000000000E9    -2.399128640150581E1   1.149003121097246E2  -5.871744652711838E-1  -1.468911648170716E2  -5.036369924768752E-1  -1.456414019462201E2  -5.000603273383862E1  -8.499692885508134E1  
 1.005012531328321E9    -2.132434179611651E1   7.620602656755601E1  -6.798654434781767E-1  -1.585130488245509E2  -5.385928754305271E-1  -1.547927463291773E2  -3.218274513138719E1   1.070930090145986E2  
 1.010025062656642E9    -2.102849752362336E1   2.831885278629211E1  -6.595075645691766E-1  -1.727365630663105E2  -5.607534611322735E-1  -1.713380351467467E2  -3.694029077430416E1   4.072995695253407E1  
 1.015037593984963E9    -1.980911286958260E1   6.001455197802339  -5.846031271686318E-1   1.739499104732004E2  -5.353223957930927E-1   1.746306480493793E2  -3.764410180232515E1   4.972335078153714E1  
 1.020050125313283E9    -2.042067464169621E1  -2.720382464907981E1  -5.042687984217816E-1   1.611519684693807E2  -4.999570227352169E-1   1.618746967084686E2  -3.160767516574138E1   2.665374054339494  
 1.025062656641604E9    -1.913443733601548E1  -6.822185803102470E1  -4.311572395601678E-1   1.474373209098384E2  -4.864285058800125E-1   1.493466491468823E2  -2.995371393198781E1  -5.894177115155189E1  
 1.030075187969925E9    -1.936578709794973E1  -1.006002276896166E2  -4.521760915296296E-1   1.333462163165777E2  -5.034056744034791E-1   1.342860764293620E2  -2.703490836259607E1  -8.049224223395170E1  
 1.035087719298246E9    -1.738284128244162E1  -1.337317757425951E2  -5.394788653765947E-1   1.188093528619574E2  -5.363074363711737E-1   1.205048660287929E2  -2.732975520192109E1  -1.261403193718295E2  
 1.040100250626566E9    -1.654714748536696E1  -1.640560563232103E2  -6.261587997563003E-1   1.050887906100080E2  -5.761204746991787E-1   1.080598739616223E2  -2.734158190464536E1  -1.457443648021060E2  
 1.045112781954887E9    -1.768691801440479E1   1.550457798063485E2  -7.376885887941120E-1   9.336760628913766E1  -5.920038158786559E-1   9.535164330374091E1  -2.463019177522144E1  -1.560435741634920E2  
 1.050125313283208E9    -1.704876642070257E1   1.315178139206331E2  -7.518538320873176E-1   8.028339541264518E1  -6.236143212757036E-1   8.132663992021877E1  -2.411740555962807E1  -1.776344586001340E2  
 1.055137844611529E9    -1.673291832863986E1   1.026337932910208E2  -6.991255368530365E-1   6.928788244442464E1  -6.012756182480515E-1   6.867999172054911E1  -2.394353654477620E1   1.372786668327609E2  
 1.060150375939850E9    -1.708938372145538E1   7.576970855187305E1  -5.845159518996049E-1   5.637133925917292E1  -5.735191209623201E-1   5.487446874249637E1  -2.500211969350264E1   1.083521365431675E2  
 1.065162907268171E9    -1.766901607659150E1   3.586905971494739E1  -4.252348546679647E-1   4.224237316928586E1  -5.217222816008524E-1   4.243826936093196E1  -2.713146035799991E1   9.560426433119490E1  
 1.070175438596491E9    -1.870568765295025E1   2.494408714647440  -3.769207879566388E-1   2.829418285663151E1  -4.788231760496952E-1   2.892811331761174E1  -2.481307061960884E1   8.038981030810520E1  
 1.075187969924812E9    -1.998669769475237E1  -3.966294065558130E1  -4.168913674097025E-1   1.463300915748281E1  -4.213510446843231E-1   1.541658920807535E1  -2.446201467325721E1   3.098800115121246E1  
 1.080200501253133E9    -1.996014465402903E1  -7.717388778206659E1  -4.830641905072120E-1  -4.337767367817915E-1  -4.396875364679548E-1   1.437539340284147  -2.598420731519122E1  -5.954705460692034  
 1.085213032581454E9    -1.934520776605133E1  -1.119565207792384E2  -6.093777667036681E-1  -1.467071441357704E1  -5.163981111680677E-1  -1.237924491680057E1  -2.859254710261931E1  -5.290036867860299E1  
 1.090225563909775E9    -1.903971399185932E1  -1.503143244348624E2  -6.747765156038817E-1  -2.634695558811547E1  -5.363092097831699E-1  -2.616503255387538E1  -2.430016190915931E1  -1.090837342030285E2  
 1.095238095238095E9    -1.830104725046402E1   1.697943055212949E2  -6.765867853043248E-1  -3.976079134713929E1  -5.561482778071603E-1  -3.839772693348233E1  -2.320773838148452E1  -1.411895753842384E2  
 1.100250626566416E9    -1.758969731752015E1   1.412764174057258E2  -5.917580233278991E-1  -5.273318746188772E1  -5.847601532685922E-1  -5.292390325644776E1  -2.461917408757506E1  -1.693422398497795E2  
 1.105263157894737E9    -1.926468245132667E1   1.192001515978342E2  -4.665839104959396E-1  -6.560657743910717E1  -5.210145526641832E-1  -6.700224176350923E1  -2.162383023871339E1   1.658218305510320E2  
 1.110275689223058E9    -1.933580840778245E1   8.045489978608211E1  -3.539784388489140E-1  -7.921806596826885E1  -4.537121271726005E-1  -7.857258232516679E1  -2.358050265952221E1   1.111903292822177E2  
 1.115288220551379E9    -2.108300263498206E1   4.014672368979064E1  -3.769718976137608E-1  -9.399651125911109E1  -4.245861491800455E-1  -9.260035689900309E1  -2.506218123891059E1   8.974828484289493E1  
 1.120300751879699E9    -2.003506951058743E1  -1.014157696884823E1  -4.808223270277489E-1  -1.081705700656642E2  -4.017718873007307E-1  -1.050938972474832E2  -2.511500181672448E1   4.553415805954799E1  
 1.125313283208020E9    -1.786414978793130E1  -4.934771759224564E1  -5.975375616849049E-1  -1.205683158078857E2  -4.399343712580395E-1  -1.203870931571264E2  -2.613437297051056E1   5.880354504025084E-1  
 1.130325814536341E9    -1.727977309562152E1  -7.783770675445776E1  -7.230362088510955E-1  -1.346370685867968E2  -5.422427526608965E-1  -1.330907565912464E2  -2.299037299448239E1  -4.111091645870804E1  
 1.135338345864662E9    -1.699897720734537E1  -1.122581824385175E2  -7.534591714354453E-1  -1.476593211744082E2  -6.509819135402920E-1  -1.459068458673990E2  -2.079132757012665E1  -8.472795000792645E1  
 1.140350877192982E9    -1.595242404684277E1  -1.353642070055695E2  -7.064966412799646E-1  -1.598507181296144E2  -6.754928206940859E-1  -1.606498656245232E2  -1.890241912158725E1  -1.156108086706485E2  
 1.145363408521303E9    -1.728232873946388E1  -1.597256991965128E2  -5.959382727857182E-1  -1.729218032677537E2  -6.370907229940624E-1  -1.718400029876284E2  -1.818548328694461E1  -1.301637161298488E2  
 1.150375939849624E9    -1.736787021516070E1   1.651128577442262E2  -4.657363812026681E-1   1.734099588220276E2  -5.396911411826055E-1   1.742141757423674E2  -1.847676526107986E1  -1.603864750750727E2  
 1.155388471177945E9    -1.914777296182862E1   1.380839869223254E2  -3.782959819507032E-1   1.600268508459550E2  -4.302107975549620E-1   1.612845039449722E2  -1.861843969884509E1   1.676599005592534E2  
 1.160401002506266E9    -1.980055220242426E1   1.091693179435733E2  -3.886071429343890E-1   1.456710252187911E2  -3.799352984737727E-1   1.473620196674195E2  -1.984126660748779E1   1.364505702857151E2  
 1.165413533834586E9    -2.099320795774456E1   5.106256324871674E1  -4.476255530804206E-1   1.317951286124979E2  -4.570657653940592E-1   1.333024471708388E2  -1.972941301468176E1   9.860610939933861E1  
 1.170426065162907E9    -2.168634551761526E1   1.197611001232032  -5.639591951866132E-1   1.185891756857515E2  -5.203293920193661E-1   1.204865164307081E2  -2.177899103889539E1   5.664381917566394E1  
 1.175438596491228E9    -1.982800513545351E1  -3.315993101949974E1  -6.281756947428409E-1   1.048828089209284E2  -6.146095667133269E-1   1.069375364151437E2  -2.216571247492640E1   1.731300387618736E1  
 1.180451127819549E9    -1.791383875526793E1  -7.928850834233651E1  -6.161983520777135E-1   9.270721454480950E1  -6.676493193642095E-1   9.337835983535172E1  -2.135915572608496E1  -3.386567114532211E1  
 1.185463659147870E9    -1.691385077082748E1  -1.000894721248687E2  -5.525840261230944E-1   8.178930561523815E1  -6.453055415974752E-1   7.990778306517957E1  -1.976750544600720E1  -6.750939398474594E1  
 1.190476190476191E9    -1.684821276005107E1  -1.217176656721045E2  -4.565692852402074E-1   6.720246855453338E1  -5.921035309223321E-1   6.745551444027237E1  -1.822726590730084E1  -1.103208433876259E2  
 1.195488721804511E9    -1.712124321094431E1  -1.570375195587048E2  -3.897134309863569E-1   5.437266077980123E1  -5.006797869802969E-1   5.387522599241484E1  -1.817968175753387E1  -1.226921077717041E2  
 1.200501253132832E9    -1.770318050802578E1   1.716226393227669E2  -3.933136363429972E-1   3.999508255083018E1  -4.338540240416847E-1   3.933731393008110E1  -1.805367317309148E1  -1.630522480022698E2  
 1.205513784461153E9    -1.875770470421399E1   1.432573581642524E2  -4.437050865793720E-1   2.538407135047574E1  -4.289492794180956E-1   2.619694755671823E1  -1.925866455000124E1   1.612446060383562E2  
 1.210526315789474E9    -2.042659404613625E1   1.044794224897003E2  -5.212245356129691E-1   1.169518463993037E1  -4.738075803723640E-1   1.132100098482875E1  -2.140687546347305E1   1.349705615305045E2  
 1.215538847117795E9    -2.041821102641247E1   6.260580166964330E1  -6.031873671940662E-1  -1.354031025525767  -5.484831614304681E-1   1.809100271542977E-1  -2.191817291135556E1   8.211861214305716E1  
 1.220551378446115E9    -1.937768990203747E1   2.524787452501325E1  -5.901560682373680E-1  -1.447970884409162E1  -6.350084734562596E-1  -1.336654182039222E1  -2.263118845505800E1   2.761189246576315E1  
 1.225563909774436E9    -1.901103767671727E1  -2.379352735115838E1  -5.497591515164376E-1  -2.702809759039578E1  -6.526255017177419E-1  -2.675248650660990E1  -1.983055739034420E1  -5.993241189979456  
 1.230576441102757E9    -1.723750411838415E1  -5.158281643339518E1  -4.657421901453162E-1  -4.066969858660946E1  -6.030646898572688E-1  -4.007138361771757E1  -1.901767566315709E1  -4.553217752395605E1  
 1.235588972431078E9    -1.708106988103675E1  -8.263201538074537E1  -4.191848855935128E-1  -5.430579228808649E1  -5.620892378888999E-1  -5.415547186512159E1  -1.877006256943930E1  -7.823998553807890E1  
 1.240601503759399E9    -1.923873974595770E1  -1.104773736043581E2  -4.060944256230995E-1  -6.789625791318153E1  -4.775735333392679E-1  -6.653548168133523E1  -1.723340334569435E1  -1.061087424628690E2  
 1.245614035087719E9    -1.863660084870723E1  -1.361611561265851E2  -4.257679910582854E-1  -8.168460608094264E1  -4.905897684856765E-1  -8.190561292199176E1  -1.812072211454992E1  -1.400697091340962E2  
 1.250626566416040E9    -1.864324387588267E1   1.769786425367564E2  -5.056301882554234E-1  -9.365777412211341E1  -4.877052275150188E-1  -9.511344554464132E1  -1.883744862692548E1  -1.600133481373670E2  
 1.255639097744361E9    -2.116627414314205E1   1.511922718498102E2  -5.471957401846692E-1  -1.097163041748838E2  -5.745402335614911E-1  -1.083804487705481E2  -2.087382490121057E1   1.549590467191958E2  
 1.260651629072682E9    -2.017061369220084E1   1.072555714488734E2  -5.751350701669549E-1  -1.211960003534973E2  -6.222787545193247E-1  -1.221147210733551E2  -2.045459670444190E1   1.101262582780120E2  
 1.265664160401002E9    -1.955341171223224E1   6.322320789656963E1  -5.593528854694631E-1  -1.339020891859656E2  -6.578039918252648E-1  -1.335058637560312E2  -2.061309463746282E1   6.523687601625947E1  
 1.270676691729323E9    -2.070676941746081E1   3.085912779193334E1  -4.971312914726326E-1  -1.495065472224960E2  -6.162304740107456E-1  -1.479712427934711E2  -2.058958231052317E1   1.809082660727573E1  
 1.275689223057644E9    -1.890587000104213E1  -1.492348340010383E1  -4.577684065139946E-1  -1.632839390306773E2  -5.461313097134014E-1  -1.610330918988728E2  -1.894369457164831E1  -2.445411912156426E1  
 1.280701754385965E9    -1.702094877903821E1  -3.760127983453153E1  -4.405912268014289E-1  -1.758045516433539E2  -5.128035987075926E-1  -1.753474559836751E2  -1.827310688403550E1  -6.212381292441834E1  
 1.285714285714286E9    -1.697897715860908E1  -6.851605302491177E1  -4.879022824893514E-1   1.711680238266811E2  -5.229135583020925E-1   1.716591082301820E2  -1.836879276074599E1  -8.344326663941487E1  
 1.290726817042607E9    -1.767169670879450E1  -1.139620566609752E2  -5.098761281471302E-1   1.583245782407902E2  -5.645422553599711E-1   1.587696936499892E2  -1.754979464891245E1  -1.176449730974106E2  
 1.295739348370927E9    -1.803275498189397E1  -1.463900877997041E2  -5.271693830031351E-1   1.450658557044762E2  -5.870428881718813E-1   1.434593774492293E2  -1.722237849461936E1  -1.588039004387504E2  
 1.300751879699248E9    -1.863053983966618E1  -1.779271523950175E2  -5.563784073546224E-1   1.314789279507782E2  -6.400082365871679E-1   1.304127960912822E2  -1.839111099435958E1   1.736787192678988E2  
 1.305764411027569E9    -1.812011846762195E1   1.426120969739741E2  -5.744668415416402E-1   1.170620085466192E2  -6.892201139597212E-1   1.185379975996196E2  -1.893305526621757E1   1.249682688826628E2  
 1.310776942355890E9    -1.918126753079027E1   1.147379606768963E2  -5.503835244213948E-1   1.049671851859614E2  -6.626994385090713E-1   1.049127809682999E2  -1.801625354358224E1   8.981739705115885E1  
 1.315789473684211E9    -1.974082673245564E1   7.201101435218975E1  -5.371411400312705E-1   9.104900990058393E1  -6.550849669721002E-1   9.255443998912332E1  -1.815848251621737E1   4.663003649751584E1  
 1.320802005012531E9    -1.767252991362086E1   4.065297281501978E1  -5.329799225652314E-1   7.737349049546961E1  -6.423253061481619E-1   7.791577791280085E1  -1.658428212745992E1   5.779554924258844  
 1.325814536340852E9    -1.897459424709653E1   5.768786531815747  -5.309531083839427E-1   6.432720594705464E1  -6.614747155931150E-1   6.491753587320676E1  -1.606202316904885E1  -2.396130060779757E1  
 1.330827067669173E9    -1.988825759931342E1  -2.074986898662680E1  -5.317512330954072E-1   5.248149884014297E1  -6.537878484980704E-1   5.162514045710125E1  -1.552118882326143E1  -6.007608883843984E1  
 1.335839598997494E9    -1.971223881832933E1  -6.623564856019863E1  -5.265567893382683E-1   3.766080425228758E1  -6.946436798031138E-1   3.816019364603744E1  -1.623122901107320E1  -9.220612166814333E1  
 1.340852130325815E9    -2.009307250292597E1  -9.622011534193666E1  -5.224233804020598E-1   2.264494088310838E1  -7.168522493203196E-1   2.414583277404519E1  -1.660774236501395E1  -1.361078590581395E2  
 1.345864661654135E9    -1.961363431484402E1  -1.394105560810855E2  -5.613307391294454E-1   1.078076242868571E1  -7.005216001278822E-1   1.145039624996124E1  -1.653736683672745E1  -1.615396072518039E2  
 1.350877192982456E9    -1.947180732065941E1  -1.640934612582045E2  -5.824294621243329E-1  -1.381763501879949  -7.058348687552325E-1  -2.211439924189859  -1.745412092386953E1   1.507738744759261E2  
 1.355889724310777E9    -1.862520144455029E1   1.574016838520581E2  -6.184618908176576E-1  -1.750072530735235E1  -7.159059124008466E-1  -1.434937605785015E1  -1.661903593981620E1   1.079449362718356E2  
 1.360902255639098E9    -1.766217580341642E1   1.276363408094560E2  -6.187046119184320E-1  -2.934100106934568E1  -7.640144320986266E-1  -2.908599006377576E1  -1.631659923511762E1   7.263370042400683E1  
 1.365914786967419E9    -1.875375149225033E1   9.024825370401896E1  -6.402074470348494E-1  -4.237148618981462E1  -7.926463996961197E-1  -4.071292317988623E1  -1.657822328675189E1   3.627189984968699E1  
 1.370927318295739E9    -1.884404565209928E1   6.010080054238716E1  -6.490699898879476E-1  -5.582608997212689E1  -8.240372754204458E-1  -5.481403193141864E1  -1.560027645525391E1   8.662704467291329  
 1.375939849624060E9    -1.904286827699722E1   2.478274836422271E1  -5.986747581408241E-1  -6.860944581387160E1  -7.907605341799934E-1  -6.889277356200931E1  -1.494334621442364E1  -2.640750420873779E1  
 1.380952380952381E9    -1.922423455156303E1  -1.660040872425866E1  -5.789461099387449E-1  -8.374330008193904E1  -7.602164343021345E-1  -8.170444939823433E1  -1.553893710619922E1  -5.958933706832688E1  
 1.385964912280702E9    -1.993578353962668E1  -5.572785271451235E1  -5.848193466873525E-1  -9.754834727028339E1  -7.557353427022252E-1  -9.430086415061882E1  -1.577766257817319E1  -9.384731124440665E1  
 1.390977443609023E9    -1.873494506590807E1  -1.042220338283985E2  -6.026344246785833E-1  -1.096599244754166E2  -7.712719624872692E-1  -1.082018779053916E2  -1.608855352862106E1  -1.361742475404997E2  
 1.395989974937343E9    -1.744863049223364E1  -1.347253862949887E2  -6.598504027678287E-1  -1.237264450511344E2  -7.983983136688775E-1  -1.213845461741696E2  -1.566200850248231E1  -1.729064061255433E2  
 1.401002506265664E9    -1.732893081478293E1  -1.572106682773775E2  -7.296211536604306E-1  -1.376871553498777E2  -8.558060904010130E-1  -1.354917795116246E2  -1.523701921080675E1   1.525533227156262E2  
 1.406015037593985E9    -1.678499271627215E1   1.717287691747097E2  -7.813465745545211E-1  -1.493081837886913E2  -9.107552516937902E-1  -1.484024504191258E2  -1.482283924571273E1   1.131369014831575E2  
 1.411027568922306E9    -1.655976922479766E1   1.386279809145514E2  -8.097805025414314E-1  -1.638040776173280E2  -9.452730875392738E-1  -1.629221863812828E2  -1.473117991744695E1   7.375452806963259E1  
 1.416040100250627E9    -1.773270897258018E1   1.175945513503435E2  -7.751522507791666E-1  -1.768014774317890E2  -9.644159742610675E-1  -1.742071288402593E2  -1.457093945961402E1   4.276200307751288E1  
 1.421052631578947E9    -1.899462866560536E1   8.749412269313972E1  -7.401406857872345E-1   1.709229865869108E2  -9.451664573771196E-1   1.706897003175108E2  -1.521016415269347E1   5.846329867470445  
 1.426065162907268E9    -2.032720930082422E1   4.560751610239379E1  -6.805282412117215E-1   1.574702730442785E2  -8.955173853399229E-1   1.572168664097007E2  -1.516757944960308E1  -2.589533767258787E1  
 1.431077694235589E9    -2.220610862015113E1   9.194069278588044  -6.750523492457964E-1   1.431303028469636E2  -8.520788668444437E-1   1.446604113945230E2  -1.523377970165513E1  -6.317557771972832E1  
 1.436090225563910E9    -2.202252016304847E1  -4.848421201443911E1  -6.734797690906550E-1   1.297193332253030E2  -8.649606774937357E-1   1.324214493863321E2  -1.651979439886478E1  -1.009080694997092E2  
 1.441102756892231E9    -2.186580451205201E1  -9.439448319370597E1  -7.511002142126398E-1   1.155446331612436E2  -8.954215898000963E-1   1.169778242344713E2  -1.673409471826650E1  -1.390069987375828E2  
 1.446115288220552E9    -1.794641622458876E1  -1.316093062741783E2  -8.261953726957059E-1   1.031615847693517E2  -9.504116270406854E-1   1.037751744972099E2  -1.556183006929443E1  -1.757666126704030E2  
 1.451127819548872E9    -1.756848295072683E1  -1.570220317974259E2  -8.770986570048166E-1   8.777239687244955E1  -1.001673592843617   9.038692553996981E1  -1.548202168953851E1   1.460568203167492E2  
 1.456140350877193E9    -1.647976588494093E1   1.787265349481233E2  -9.071094943017786E-1   7.663951123120071E1  -1.017444979458455   7.878454711902069E1  -1.566467909041689E1   1.160709498548616E2  
 1.461152882205514E9    -1.743692430898466E1   1.519221635646887E2  -8.703664902586596E-1   6.435327777956870E1  -9.900514964028779E-1   6.551353381191190E1  -1.462243597186109E1   7.702563114795835E1  
 1.466165413533835E9    -1.816194919282883E1   1.243957424433120E2  -8.291161419740436E-1   5.081225125633333E1  -9.640666232851581E-1   5.224141763372241E1  -1.571112499939052E1   4.703246193464034E1  
 1.471177944862155E9    -1.914033756082620E1   9.632035948558523E1  -7.842346410289540E-1   3.700892517008968E1  -9.145733808007548E-1   3.855004225172896E1  -1.675993284308522E1   8.339776478834198  
 1.476190476190476E9    -2.145264590230870E1   5.336311873481774E1  -7.703897702405747E-1   2.273991212081258E1  -9.165006874278456E-1   2.460834503018051E1  -1.718109027838089E1  -2.878678191861887E1  
 1.481203007518797E9    -2.276683305296803E1   1.531428762608731E1  -8.112747677860160E-1   8.351945311766004  -8.792534330942543E-1   1.090038160009936E1  -1.701476879050973E1  -7.437537358273914E1  
