#  HZ   S   DB   R     50.0000 
! Rohde & Schwarz ZVA/B 
! 
! 
! 

 1.000000000000000E9    -7.096661238465697E-1  -1.393060172308609E2  
 1.005012531328321E9    -4.594869603213207E-1  -1.518905434111391E2  
 1.010025062656642E9    -4.448522849107194E-1  -1.690261650717820E2  
 1.015037593984963E9    -4.117083195290827E-1   1.743172024012860E2  
 1.020050125313283E9    -2.912757291905452E-1   1.582137679114141E2  
 1.025062656641604E9    -4.379404264765074E-1   1.455740075807683E2  
 1.030075187969925E9    -4.402994747885468E-1   1.299710506789142E2  
 1.035087719298246E9    -6.129940885854981E-1   1.166609735947253E2  
 1.040100250626566E9    -5.517309338653467E-1   1.009336038979062E2  
 1.045112781954887E9    -3.214203126841885E-1   8.785570837183785E1  
 1.050125313283208E9    -1.663115483987604E-1   7.084413767762192E1  
 1.055137844611529E9    -3.926056265674802E-1   5.641228246819603E1  
 1.060150375939850E9    -5.399153290960794E-1   4.119140166286599E1  
 1.065162907268171E9    -3.421138430831465E-1   2.480982139213909E1  
 1.070175438596491E9    -5.114393454960320E-1   1.191222528471410E1  
 1.075187969924812E9    -4.496730847340413E-1  -3.802140267860199  
 1.080200501253133E9    -5.299197600436668E-1  -1.956271860301064E1  
 1.085213032581454E9    -5.129700130501226E-1  -3.507091426609841E1  
 1.090225563909775E9    -4.933515385939258E-1  -4.959671399172019E1  
 1.095238095238095E9    -6.264940812864658E-1  -6.634329720568596E1  
 1.100250626566416E9    -5.779493301605976E-1  -7.870381617504360E1  
 1.105263157894737E9    -4.482233596404945E-1  -9.509356877165891E1  
 1.110275689223058E9    -3.679787769926922E-1  -1.121550578114414E2  
 1.115288220551379E9    -1.819200676036761E-1  -1.237912241141816E2  
 1.120300751879699E9    -4.680104557085149E-1  -1.418623642161278E2  
 1.125313283208020E9     1.930488247205869E-2  -1.558719256020098E2  
 1.130325814536341E9    -2.797082537668325E-1  -1.695254972177144E2  
 1.135338345864662E9    -2.673969414579347E-1   1.752942417603408E2  
 1.140350877192982E9    -3.140415326715482E-1   1.620973635417244E2  
 1.145363408521303E9    -2.833693342003170E-1   1.462620374042008E2  
 1.150375939849624E9    -4.379025850470476E-1   1.300207210864421E2  
 1.155388471177945E9    -5.458353566484920E-1   1.151090801010484E2  
 1.160401002506266E9    -4.716102897767723E-1   9.915148665267036E1  
 1.165413533834586E9    -6.129589992192024E-1   8.312652403901060E1  
 1.170426065162907E9    -4.110232073446831E-1   6.749214899379254E1  
 1.175438596491228E9    -4.125946894708706E-1   5.189359263871921E1  
 1.180451127819549E9    -6.233430481715151E-1   3.695682672324765E1  
 1.185463659147870E9    -6.308576019821309E-1   2.055647661101703E1  
 1.190476190476191E9    -3.744613451131027E-1   3.852063109496612  
 1.195488721804511E9    -2.186627051504941E-1  -1.370974552204119E1  
 1.200501253132832E9    -2.061602046895473E-1  -2.923929470340753E1  
 1.205513784461153E9    -2.722195326128440E-1  -4.365191321259130E1  
 1.210526315789474E9    -3.640695068028942E-1  -5.990398900502305E1  
 1.215538847117795E9    -5.112059807547734E-1  -7.167088841631409E1  
 1.220551378446115E9    -3.190839707964054E-1  -8.759158847030882E1  
 1.225563909774436E9    -7.368141107972721E-1  -1.002963629960575E2  
 1.230576441102757E9    -6.816579779051104E-1  -1.162960324300156E2  
 1.235588972431078E9    -6.353429114398170E-1  -1.309520880402354E2  
 1.240601503759399E9    -5.787651700656393E-1  -1.438918442738841E2  
 1.245614035087719E9    -8.157523847398871E-1  -1.575509156620919E2  
 1.250626566416040E9    -5.039827715679506E-1  -1.740713318508784E2  
 1.255639097744361E9    -5.796817195797128E-1   1.721124702073049E2  
 1.260651629072682E9    -3.989960557574162E-1   1.571637514295369E2  
 1.265664160401002E9    -3.361313003270250E-1   1.418311145785721E2  
 1.270676691729323E9    -4.834139527932018E-1   1.233057289825258E2  
 1.275689223057644E9    -2.751490795856439E-1   1.085256467084310E2  
 1.280701754385965E9    -3.224358850551234E-1   9.372514988569770E1  
 1.285714285714286E9    -2.547789588281796E-1   7.848473678838668E1  
 1.290726817042607E9    -4.740328425341965E-1   6.232759276642001E1  
 1.295739348370927E9    -4.371897719930185E-1   4.664706994205929E1  
 1.300751879699248E9    -4.649871880080021E-1   3.205327930713583E1  
 1.305764411027569E9    -5.708041541990413E-1   1.691780146831593E1  
 1.310776942355890E9    -6.721935731129018E-1   3.142087340429175  
 1.315789473684211E9    -4.413072490932127E-1  -1.213536384789672E1  
 1.320802005012531E9    -4.746808121179626E-1  -2.780244890881822E1  
 1.325814536340852E9    -3.707950048670729E-1  -4.349980360470637E1  
 1.330827067669173E9    -6.841687899854664E-1  -5.646854728906608E1  
 1.335839598997494E9    -4.844486854329095E-1  -7.273759875749106E1  
 1.340852130325815E9    -4.030485538561603E-1  -9.004972931642128E1  
 1.345864661654135E9    -5.381010552373863E-1  -1.027131370105260E2  
 1.350877192982456E9    -5.823183260414788E-1  -1.200321188351208E2  
 1.355889724310777E9    -7.680984569486269E-1  -1.381350422791210E2  
 1.360902255639098E9    -6.498543194830051E-1  -1.520037433918344E2  
 1.365914786967419E9    -5.236711784798130E-1  -1.666584275932266E2  
 1.370927318295739E9    -5.056225601639444E-1   1.785146180626290E2  
 1.375939849624060E9    -6.410551081666304E-1   1.637193293675209E2  
 1.380952380952381E9    -6.330042113228916E-1   1.486289469387480E2  
 1.385964912280702E9    -6.045164561423555E-1   1.364672877942533E2  
 1.390977443609023E9    -5.748215848762762E-1   1.200393969281953E2  
 1.395989974937343E9    -6.111935460205347E-1   1.075575929541917E2  
 1.401002506265664E9    -7.376466607769072E-1   9.389579970891307E1  
 1.406015037593985E9    -5.639878330303815E-1   8.043386892899163E1  
 1.411027568922306E9    -5.683162362521614E-1   6.430581788869763E1  
 1.416040100250627E9    -6.217608978627760E-1   4.599927644783357E1  
 1.421052631578947E9    -8.087123680971398E-1   3.126552141601533E1  
 1.426065162907268E9    -8.315751948289265E-1   1.591178012356314E1  
 1.431077694235589E9    -9.379158861509696E-1  -2.973613726020796E-1  
 1.436090225563910E9    -8.925382250578605E-1  -1.845479874074943E1  
 1.441102756892231E9    -8.419991165231117E-1  -3.373125404517253E1  
 1.446115288220552E9    -9.482184937333347E-1  -4.819046291943539E1  
 1.451127819548872E9    -9.436822235066013E-1  -6.407311913349541E1  
 1.456140350877193E9    -9.328445439215997E-1  -8.085874177953156E1  
 1.461152882205514E9    -6.980840794962505E-1  -9.431382810774680E1  
 1.466165413533835E9    -7.736908194936493E-1  -1.100455452864745E2  
 1.471177944862155E9    -6.553464412333960E-1  -1.255523788139858E2  
 1.476190476190476E9    -6.124561964835096E-1  -1.381255518677062E2  
 1.481203007518797E9    -5.891175875233611E-1  -1.548210187932633E2  
 1.486215538847118E9    -6.737696819948938E-1  -1.675511776211828E2  
 1.491228070175439E9    -6.651374375446740E-1   1.781924484173690E2  
 1.496240601503759E9    -7.342588231160668E-1   1.642560887981083E2  
 1.501253132832080E9    -8.509720769551020E-1   1.500831909907283E2  
 1.506265664160401E9    -9.402214831697162E-1   1.370398197320658E2  
 1.511278195488722E9    -9.214243721368350E-1   1.217181973122628E2  
 1.516290726817043E9    -9.570091664097012E-1   1.084488757930241E2  
 1.521303258145363E9    -8.019881507757483E-1   8.975100741910377E1  
 1.526315789473684E9    -1.061030481142386   7.434872181513937E1  
 1.531328320802005E9    -1.042369511717976   5.878178501358342E1  
 1.536340852130326E9    -9.336044927325217E-1   4.073979985975970E1  
 1.541353383458647E9    -8.201317749111463E-1   2.511470002518906E1  
 1.546365914786967E9    -9.596781995657768E-1   1.044066874430923E1  
 1.551378446115288E9    -9.841671909072554E-1  -5.852317892848547  
 1.556390977443609E9    -9.155187827316099E-1  -2.412360372103742E1  
 1.561403508771930E9    -8.298032812473509E-1  -3.684721076264164E1  
 1.566416040100251E9    -1.042757633086274  -4.990312108830803E1  
 1.571428571428572E9    -9.302637765651390E-1  -6.567408508589705E1  
 1.576441102756892E9    -1.212870406752057  -8.214577657981988E1  
 1.581453634085213E9    -1.136314935877127  -9.555413006127274E1  
 1.586466165413534E9    -9.422739325540137E-1  -1.084266666287897E2  
 1.591478696741855E9    -1.042552147568660  -1.245640721258935E2  
 1.596491228070175E9    -1.023778471986520  -1.372213538497621E2  
 1.601503759398496E9    -1.121890538592332  -1.538047845547753E2  
 1.606516290726817E9    -1.097271132448816  -1.673943249178479E2  
 1.611528822055138E9    -1.062137373851257   1.766314890099191E2  
 1.616541353383459E9    -1.168419355511496   1.610732370502082E2  
 1.621553884711780E9    -1.093040799201868   1.460841799179817E2  
 1.626566416040100E9    -1.241456239772224   1.313112534685561E2  
 1.631578947368421E9    -1.127434019165589   1.144922868773879E2  
 1.636591478696742E9    -1.225310003368122   9.920643181256190E1  
 1.641604010025063E9    -1.031128702026491   8.456922357240214E1  
 1.646616541353384E9    -1.011418012048017   7.133507952410797E1  
 1.651629072681704E9    -1.084443623810364   5.748599989444810E1  
 1.656641604010025E9    -9.982510791796049E-1   4.246635566604058E1  
 1.661654135338346E9    -9.160015514054325E-1   2.806563879888176E1  
 1.666666666666667E9    -7.829536456774235E-1   1.196523330993506E1  
 1.671679197994988E9    -6.550563156807784E-1  -5.572972503675867  
 1.676691729323309E9    -7.866120633143964E-1  -1.848438760013691E1  
 1.681704260651629E9    -8.489112691392875E-1  -3.497676205146858E1  
 1.686716791979950E9    -8.618264625995662E-1  -5.085506960802803E1  
 1.691729323308271E9    -8.989732798173697E-1  -6.703453970570523E1  
 1.696741854636591E9    -9.605324536234489E-1  -8.357962504616333E1  
 1.701754385964912E9    -1.162483028550007  -9.791386569770111E1  
 1.706766917293233E9    -1.135363674766302  -1.142729152618603E2  
 1.711779448621554E9    -1.074741138603690  -1.291653940074837E2  
 1.716791979949875E9    -9.469522691826992E-1  -1.445625000834011E2  
 1.721804511278195E9    -8.750595283651239E-1  -1.592917715584512E2  
 1.726817042606516E9    -1.038578410589209  -1.735895557072211E2  
 1.731829573934837E9    -9.057729258743448E-1   1.726099881111981E2  
 1.736842105263158E9    -7.430565054205544E-1   1.572580364954391E2  
 1.741854636591479E9    -8.127996706643813E-1   1.440413747350737E2  
 1.746867167919800E9    -6.772379951144304E-1   1.295563751618926E2  
 1.751879699248120E9    -5.444182846797849E-1   1.156629423965056E2  
 1.756892230576441E9    -7.537478345936646E-1   9.954224664108071E1  
 1.761904761904762E9    -6.604588475501779E-1   8.674941973541006E1  
 1.766917293233083E9    -8.246319823589572E-1   7.057996055538789E1  
 1.771929824561404E9    -9.076295426909008E-1   5.730479538600135E1  
 1.776942355889724E9    -9.996288383685824E-1   4.011912249474317E1  
 1.781954887218045E9    -1.129763661901442   2.474751173813003E1  
 1.786967418546366E9    -1.128412484046486   8.123949745306785  
 1.791979949874687E9    -1.227815012780590  -6.854364909528003  
 1.796992481203008E9    -1.171040180675729  -2.313224465222954E1  
 1.802005012531328E9    -1.100204092726058  -4.094720522485071E1  
 1.807017543859649E9    -7.037633060530090E-1  -5.810625152207130E1  
 1.812030075187970E9    -6.018743440972352E-1  -7.061856894185415E1  
 1.817042606516291E9    -7.156772871811014E-1  -8.801666902006291E1  
 1.822055137844612E9    -7.817618546918417E-1  -1.028737245651185E2  
 1.827067669172932E9    -6.369614757614842E-1  -1.162270630062984E2  
 1.832080200501253E9    -5.557956437590347E-1  -1.319510303582685E2  
 1.837092731829574E9    -5.995145235709762E-1  -1.468189339794581E2  
 1.842105263157895E9    -7.417810474085381E-1  -1.595824949952406E2  
 1.847117794486216E9    -7.545352912167826E-1  -1.739090739404573E2  
 1.852130325814536E9    -7.043607539461291E-1   1.715186089996675E2  
 1.857142857142857E9    -7.698483682668756E-1   1.573423656231879E2  
 1.862155388471178E9    -9.035652532544779E-1   1.414423670924121E2  
 1.867167919799499E9    -1.147582486786991   1.284860919076897E2  
 1.872180451127820E9    -9.479399539052306E-1   1.114691558497027E2  
 1.877192982456141E9    -1.011374854453603   9.614865157364362E1  
 1.882205513784461E9    -1.088775674438466   8.079534605048727E1  
 1.887218045112782E9    -8.801625036062132E-1   6.593203038435711E1  
 1.892230576441103E9    -1.006322852651782   4.981149184201135E1  
 1.897243107769424E9    -8.858918679402417E-1   3.281805292247005E1  
 1.902255639097745E9    -7.490714732570152E-1   1.829873335835380E1  
 1.907268170426065E9    -6.676527784193593E-1   2.417234420336829  
 1.912280701754386E9    -6.340595810669734E-1  -1.338011499444065E1  
 1.917293233082707E9    -6.925557019398348E-1  -2.858300246341186E1  
 1.922305764411027E9    -8.292069959783327E-1  -4.368445832228157E1  
 1.927318295739348E9    -8.649026481513724E-1  -5.894086604743740E1  
 1.932330827067669E9    -7.804808468925545E-1  -7.331436016484147E1  
 1.937343358395990E9    -8.889447251081396E-1  -8.838592189581981E1  
 1.942355889724311E9    -9.634508430632894E-1  -1.029818914615048E2  
 1.947368421052632E9    -1.087195926101671  -1.174687737129636E2  
 1.952380952380952E9    -1.078263580475464  -1.323300045363557E2  
 1.957393483709273E9    -9.115656473336611E-1  -1.499705357048922E2  
 1.962406015037594E9    -9.833813569940120E-1  -1.635690311889410E2  
 1.967418546365915E9    -8.615673697740317E-1   1.793716323983524E2  
 1.972431077694236E9    -1.209278062834146   1.662280105259182E2  
 1.977443609022556E9    -7.606308281824755E-1   1.489009157239110E2  
 1.982456140350877E9    -8.330516009703088E-1   1.367552854878773E2  
 1.987468671679198E9    -7.259094886124178E-1   1.208586204128591E2  
 1.992481203007519E9    -7.119850027664412E-1   1.074318603020252E2  
 1.997493734335840E9    -7.392531699464798E-1   9.199466669039096E1  
 2.002506265664161E9    -7.186922970956088E-1   7.672408127362004E1  
 2.007518796992481E9    -7.551749891997066E-1   6.287437934199843E1  
 2.012531328320802E9    -7.381240729172502E-1   4.725168462325581E1  
 2.017543859649123E9    -8.603490977235381E-1   3.328589489987996E1  
 2.022556390977444E9    -9.962379359286224E-1   1.838311337392568E1  
 2.027568922305764E9    -9.270592855027902E-1   2.189770445633350  
 2.032581453634085E9    -8.843802526195600E-1  -1.372409327407892E1  
 2.037593984962406E9    -1.078233243297639  -2.929000577514100E1  
 2.042606516290727E9    -9.878907742110478E-1  -4.471445590231490E1  
 2.047619047619048E9    -1.093542950408251  -6.023198775753154E1  
 2.052631578947369E9    -9.522607321126432E-1  -7.501418675798362E1  
 2.057644110275689E9    -8.402764694994315E-1  -9.086013876866001E1  
 2.062656641604010E9    -7.445962073126461E-1  -1.089989142152617E2  
 2.067669172932331E9    -7.145008077978434E-1  -1.238734329005076E2  
 2.072681704260652E9    -6.940821975502669E-1  -1.415209765747200E2  
 2.077694235588973E9    -5.348798966372560E-1  -1.543811933789366E2  
 2.082706766917293E9    -5.734496780113140E-1  -1.693518893628416E2  
 2.087719298245614E9    -5.464402754561620E-1   1.765448142201216E2  
 2.092731829573935E9    -5.465087146499392E-1   1.617996924342610E2  
 2.097744360902256E9    -6.416482763642202E-1   1.484197762916924E2  
 2.102756892230577E9    -6.687995881090318E-1   1.340908010526753E2  
 2.107769423558897E9    -7.750643290316641E-1   1.194642669337453E2  
 2.112781954887218E9    -7.995948806088808E-1   1.052603536586084E2  
 2.117794486215539E9    -8.395774727095664E-1   9.220436629418919E1  
 2.122807017543860E9    -8.670753730142901E-1   7.680762167549764E1  
 2.127819548872181E9    -9.557379290536920E-1   6.164740554576576E1  
 2.132832080200501E9    -8.910413024054997E-1   4.538820738447873E1  
 2.137844611528822E9    -6.952674923271254E-1   2.647351701728238E1  
 2.142857142857143E9    -6.987594095007257E-1   1.141427962428497E1  
 2.147869674185464E9    -7.000914593131706E-1  -5.981696267257043  
 2.152882205513784E9    -5.029999948303375E-1  -2.032358123187104E1  
 2.157894736842105E9    -4.045869957653620E-1  -3.535388269338096E1  
 2.162907268170426E9    -5.126702470194690E-1  -5.070702625456567E1  
 2.167919799498747E9    -6.524351354620546E-1  -6.933781827347515E1  
 2.172932330827067E9    -7.222161334212242E-1  -8.426243681824792E1  
 2.177944862155389E9    -7.956867528575232E-1  -9.893584173859478E1  
 2.182957393483709E9    -8.612099542456810E-1  -1.136168962811617E2  
 2.187969924812030E9    -8.769373000957600E-1  -1.270274971307362E2  
 2.192982456140351E9    -8.857815341746316E-1  -1.401545964511786E2  
 2.197994987468672E9    -8.990645971359556E-1  -1.550902713535469E2  
 2.203007518796992E9    -8.648419383118987E-1  -1.702882133735009E2  
 2.208020050125313E9    -9.271739802035004E-1   1.758489937158400E2  
 2.213032581453634E9    -9.377161044348643E-1   1.589661458765295E2  
 2.218045112781955E9    -8.370800017859404E-1   1.451021154607690E2  
 2.223057644110276E9    -7.426780579439846E-1   1.305468272721788E2  
 2.228070175438597E9    -7.964910470528736E-1   1.143142349907421E2  
 2.233082706766917E9    -8.482734975858445E-1   9.830107826477138E1  
 2.238095238095238E9    -8.459690657921518E-1   8.340439314988478E1  
 2.243107769423559E9    -7.205932731500548E-1   6.970985295097171E1  
 2.248120300751880E9    -7.810656809349332E-1   5.439252249202760E1  
 2.253132832080200E9    -8.940004130436751E-1   3.870820152620016E1  
 2.258145363408522E9    -8.264743949290143E-1   2.366703995071666E1  
 2.263157894736842E9    -8.665837934011094E-1   7.218585316009371  
 2.268170426065163E9    -9.731459730778542E-1  -7.505835695784170  
 2.273182957393484E9    -9.277929018485166E-1  -2.353850346862900E1  
 2.278195488721805E9    -8.645491495494150E-1  -3.660113888293908E1  
 2.283208020050125E9    -8.841600514166261E-1  -5.168698854111712E1  
 2.288220551378446E9    -9.060015181159832E-1  -6.732701312319873E1  
 2.293233082706767E9    -9.671418268241029E-1  -8.369637758536180E1  
 2.298245614035088E9    -9.003367785790434E-1  -9.994272708947813E1  
 2.303258145363409E9    -9.486626418920854E-1  -1.155796313817244E2  
 2.308270676691730E9    -9.800164287187545E-1  -1.312534877963482E2  
 2.313283208020050E9    -9.779583672014771E-1  -1.475499138914396E2  
 2.318295739348371E9    -9.861792291106956E-1  -1.617568700783490E2  
 2.323308270676692E9    -9.949979349613844E-1  -1.779283153993900E2  
 2.328320802005013E9    -9.356016069238454E-1   1.675128979324654E2  
 2.333333333333334E9    -9.819165869836222E-1   1.539582373964682E2  
 2.338345864661655E9    -9.233587390370446E-1   1.393455835017990E2  
 2.343358395989975E9    -9.443366631899965E-1   1.260461145726954E2  
 2.348370927318296E9    -9.271130341713532E-1   1.106375581088259E2  
 2.353383458646617E9    -8.789755645368126E-1   9.625041522502123E1  
 2.358395989974937E9    -9.242057641486179E-1   8.230146111213855E1  
 2.363408521303258E9    -1.067202554478165   6.707557047492095E1  
 2.368421052631579E9    -8.287717112791483E-1   5.352133728138779E1  
 2.373433583959900E9    -7.778462304461663E-1   3.980806110644766E1  
 2.378446115288220E9    -9.347067807869854E-1   2.191169728766084E1  
 2.383458646616541E9    -9.563360881131399E-1   7.018090281233931  
 2.388471177944862E9    -1.148839694496786  -1.188746808348019E1  
 2.393483709273183E9    -1.100207957922224  -2.627349034069082E1  
 2.398496240601504E9    -1.253617426641922  -4.304237192496251E1  
 2.403508771929825E9    -1.190431825288292  -5.726211850880427E1  
 2.408521303258145E9    -1.227506133753749  -7.498201475199809E1  
