#  HZ   S   DB   R     50.0000 
! Rohde & Schwarz ZVA/B 
! 
! 
! 

 1.000000000000000E9    -2.275929856462862E1   1.785628202130437E2  -5.916650542296142E-1  -1.243324457010366E2  -5.046170980488275E-1  -1.219364564282580E2  -3.604446750255740E1  -8.319691135493626E1  
 1.005012531328321E9    -2.031319165878252E1   1.353119216103354E2  -6.370172084939552E-1  -1.343882626317480E2  -5.217171788199729E-1  -1.343402069982292E2  -3.123858622314705E1   1.200097884309718E2  
 1.010025062656642E9    -2.005097733285131E1   8.225451247273331E1  -6.646351757602296E-1  -1.507191483133949E2  -5.513645009621186E-1  -1.496400899368623E2  -3.541676006155951E1   1.769641769089585E2  
 1.015037593984963E9    -2.173713510373643E1   5.836386432535425E1  -6.383257716947732E-1  -1.630136330121287E2  -5.532620119100843E-1  -1.631930562662167E2  -3.538823013297759E1   6.906636806964802E1  
 1.020050125313283E9    -1.976350154942233E1   1.542271649223082E1  -5.688955555324375E-1  -1.755166470309797E2  -5.015170934143639E-1  -1.758337150744285E2  -3.592323671324942E1   5.535390990511652E1  
 1.025062656641604E9    -1.986365273951808E1  -2.398497534252029E1  -4.699116446058835E-1   1.692173129960900E2  -4.925526895497392E-1   1.699818209402968E2  -3.915947795430531E1  -6.596062500839864  
 1.030075187969925E9    -1.948740096561665E1  -5.955059346506859E1  -4.224590478227988E-1   1.569708410404417E2  -5.058511435981081E-1   1.569253015366026E2  -3.056432594049401E1  -1.510173287032911E1  
 1.035087719298246E9    -1.789050350592164E1  -8.913263162570793E1  -4.537623138018704E-1   1.414674677995048E2  -4.946791975149549E-1   1.441742113885056E2  -3.174816196815172E1  -1.166729277495265E2  
 1.040100250626566E9    -1.906551905085465E1  -1.311209826945948E2  -5.037566314975513E-1   1.284619826381752E2  -5.343051667827540E-1   1.306606165136333E2  -2.778713620197788E1  -1.296020818009401E2  
 1.045112781954887E9    -1.741412200388727E1  -1.642533757776418E2  -6.509303037648518E-1   1.159984786156713E2  -5.538879819242705E-1   1.178975184961297E2  -2.496577062142311E1  -1.569236651762498E2  
 1.050125313283208E9    -1.585289285000580E1   1.734832728614194E2  -7.357968151251488E-1   1.030806472269628E2  -5.818917114889310E-1   1.040471146693637E2  -2.241010769324138E1  -1.689220199706781E2  
 1.055137844611529E9    -1.633925714818672E1   1.411233395070117E2  -7.667579974878488E-1   9.073676767333409E1  -6.059276362575896E-1   9.084470103160544E1  -2.367726459784796E1   1.777104358302221E2  
 1.060150375939850E9    -1.686400781917671E1   1.191459935437114E2  -7.151222716013741E-1   7.851222135089435E1  -6.206149516611299E-1   7.719859686414711E1  -2.267662803508971E1   1.585807979160305E2  
 1.065162907268171E9    -1.832964115522790E1   8.661768963908790E1  -5.715880335090887E-1   6.480754177065820E1  -5.867091725177350E-1   6.495164508744958E1  -2.255663310133176E1   1.211967250286629E2  
 1.070175438596491E9    -1.813991405932218E1   4.214364198381138E1  -4.445713964991042E-1   5.225510519858302E1  -5.103036317162872E-1   5.131894839583129E1  -2.204583648923532E1   1.032654583908202E2  
 1.075187969924812E9    -1.904985120088303E1   1.420870575063803E1  -3.842668370056754E-1   3.808224069399853E1  -4.345838945283794E-1   3.867104100380631E1  -2.300769410222070E1   8.973136858949087E1  
 1.080200501253133E9    -1.941238376205407E1  -1.885780583824402E1  -3.533520977189451E-1   2.421425068300794E1  -4.111873516511456E-1   2.400594160225290E1  -2.469786209652505E1   6.287617431644734E1  
 1.085213032581454E9    -1.873294177823756E1  -5.888970848462403E1  -4.338598176235328E-1   9.455466897055752  -4.289349246918921E-1   1.135464992946735E1  -2.625647877025522E1   2.822866576136316E1  
 1.090225563909775E9    -1.993917242323322E1  -9.728011942609767E1  -5.559238082941145E-1  -2.518180251978917  -4.301910922847652E-1  -1.958572474489449  -2.930164368855111E1  -3.394343355746992E1  
 1.095238095238095E9    -1.911131882925253E1  -1.471549143739492E2  -6.438420084532041E-1  -1.611543537008107E1  -4.958817677055922E-1  -1.637013131525419E1  -2.566081697738127E1  -7.925655747244635E1  
 1.100250626566416E9    -1.997059923439044E1  -1.542391686735227E2  -6.466978863209588E-1  -2.888986847818846E1  -5.652955556867018E-1  -2.850773653740388E1  -2.432297694776662E1  -1.139520068322909E2  
 1.105263157894737E9    -1.755321361821476E1   1.571122356394811E2  -5.660209699612450E-1  -4.215717743322962E1  -5.618575842551052E-1  -4.161556340988345E1  -2.269026963895586E1  -1.616159164588925E2  
 1.110275689223058E9    -1.993551003525829E1   1.291910752186046E2  -4.611660636351632E-1  -5.380199657037409E1  -5.137538367000060E-1  -5.379166659590430E1  -2.461768471073900E1   1.754496837023300E2  
 1.115288220551379E9    -1.966773380804336E1   8.278380150877624E1  -3.764691244421962E-1  -6.889667779419980E1  -4.551507208979947E-1  -6.792535337918147E1  -2.274519037801030E1   1.383809003340089E2  
 1.120300751879699E9    -2.110119741920794E1   4.896817757938504E1  -3.678291857648108E-1  -8.222135372396649E1  -3.836972579269520E-1  -8.125512419880104E1  -2.411520925135994E1   1.082750756836703E2  
 1.125313283208020E9    -1.904765558460462E1   1.032789164039868E1  -4.521153275809466E-1  -9.573117506064433E1  -3.657938936888218E-1  -9.451417699497361E1  -2.453821210962042E1   5.776343973426236E1  
 1.130325814536341E9    -1.794566497760607E1  -3.380662048658274E1  -5.809390116741268E-1  -1.102791610072181E2  -4.301657413808095E-1  -1.095854163149831E2  -2.458335440255155E1  -7.643884388112517E-1  
 1.135338345864662E9    -1.762469993204801E1  -6.488260664648504E1  -6.899894066281253E-1  -1.235215136375350E2  -5.553036589256837E-1  -1.228454907843456E2  -2.203646351574446E1  -2.763754409551259E1  
 1.140350877192982E9    -1.533173258889504E1  -9.526597341760767E1  -7.488695315938697E-1  -1.347815550457216E2  -6.581910004943307E-1  -1.364591692903763E2  -1.986096659282119E1  -7.509689835540719E1  
 1.145363408521303E9    -1.648563469546287E1  -1.196838179556360E2  -7.239156957982561E-1  -1.478908641297385E2  -6.886554014304990E-1  -1.478830621653100E2  -1.823407524545940E1  -9.659926618909553E1  
 1.150375939849624E9    -1.640824349575219E1  -1.544376872366820E2  -6.099818783764373E-1  -1.600531329559424E2  -6.464504774515076E-1  -1.604152365280667E2  -1.789781259361484E1  -1.276228441871344E2  
 1.155388471177945E9    -1.628170509407943E1  -1.769716822674888E2  -4.796411666194465E-1  -1.737446905500361E2  -5.476600745010292E-1  -1.733946967070452E2  -1.734400531601912E1  -1.542617172905672E2  
 1.160401002506266E9    -1.746235545478584E1   1.628027131574737E2  -3.804612427106741E-1   1.724457205135380E2  -4.478195767415821E-1   1.728263551723893E2  -1.757089323642733E1   1.775691515470988E2  
 1.165413533834586E9    -1.843952963565699E1   1.263097492834169E2  -3.432808070980571E-1   1.583291396683306E2  -4.082927280211096E-1   1.579835150076618E2  -1.892788839425910E1   1.469644969390772E2  
 1.170426065162907E9    -2.126900498453196E1   7.170036139306474E1  -4.118486821836543E-1   1.447641928809699E2  -3.887920641589109E-1   1.453023139664182E2  -1.778484611301030E1   1.221454733373473E2  
 1.175438596491228E9    -2.119523412676879E1   3.217515966406764E1  -5.091810123690510E-1   1.318727861664141E2  -4.625799702545268E-1   1.308888363756298E2  -2.096954771405084E1   7.795146466493081E1  
 1.180451127819549E9    -2.008451636015960E1  -1.770467338673207E1  -5.683316344518814E-1   1.187025610405696E2  -5.643291474700468E-1   1.191964110217780E2  -2.168616613237657E1   3.702840862161349E1  
 1.185463659147870E9    -1.867502664404718E1  -5.361904861697381E1  -5.811779267506172E-1   1.058122217193974E2  -6.032069562857596E-1   1.048889983854290E2  -2.290523203591377E1  -1.766837349163004E1  
 1.190476190476191E9    -1.848995946189791E1  -8.683029378559284E1  -5.387311327157338E-1   9.230195134399791E1  -6.347720372285619E-1   9.275752802572401E1  -2.047196394631758E1  -6.098089051777530E1  
 1.195488721804511E9    -1.710336238632866E1  -1.193829054420758E2  -4.409268797615445E-1   7.935631841293449E1  -5.931356588853708E-1   7.975170862024778E1  -2.102044008161768E1  -8.314899159891583E1  
 1.200501253132832E9    -1.656849727973580E1  -1.425340300701846E2  -3.957094672668398E-1   6.538754939241254E1  -4.701362334600356E-1   6.727272684870408E1  -1.957519608059997E1  -1.084676212170552E2  
 1.205513784461153E9    -1.754533699677543E1  -1.711262848953286E2  -3.551747579842838E-1   5.282314750725281E1  -4.251440513289893E-1   5.398171301738635E1  -2.038245766443320E1  -1.453196131501468E2  
 1.210526315789474E9    -1.922381870531028E1   1.567822923355418E2  -4.072174793674707E-1   3.832350249936848E1  -3.988683028172830E-1   3.933117289493031E1  -1.983133062932918E1  -1.749764726019176E2  
 1.215538847117795E9    -1.877155930162803E1   1.218423172389268E2  -5.134727136023314E-1   2.529205877370484E1  -4.618457677938192E-1   2.580314099735080E1  -1.980431364198942E1   1.496858780567746E2  
 1.220551378446115E9    -1.985222041010911E1   8.844861733073380E1  -5.480493412467811E-1   1.265228579116416E1  -5.398534302273167E-1   1.309441454811569E1  -2.145112052854663E1   9.000583026040970E1  
 1.225563909774436E9    -2.014781160899861E1   3.103944632801272E1  -5.781689050637903E-1  -1.063663084067339  -6.347019578422736E-1  -4.903611139755591E-1  -2.235130065521733E1   5.116861031273118E1  
 1.230576441102757E9    -1.838541276659191E1   3.316641184659968E-1  -5.544411919425133E-1  -1.263105186512110E1  -6.507286759376080E-1  -1.361944587060563E1  -2.198154502659355E1   8.258966181563499  
 1.235588972431078E9    -1.703566969025911E1  -4.247632988524388E1  -4.749453519987786E-1  -2.709858515396951E1  -6.184713296123231E-1  -2.699782973656599E1  -1.925434373081272E1  -3.083298750289623E1  
 1.240601503759399E9    -1.765144670587788E1  -6.964020050514186E1  -4.256502395837891E-1  -3.884964040053093E1  -5.613055001503946E-1  -4.022720699490868E1  -1.817868907422405E1  -6.653558713954895E1  
 1.245614035087719E9    -1.655965813926850E1  -9.111340306438700E1  -4.014968527830268E-1  -5.370725958314884E1  -4.796610407226898E-1  -5.315476972046618E1  -1.700102178675867E1  -8.899103591496152E1  
 1.250626566416040E9    -1.758274587041278E1  -1.191358814354137E2  -4.051730071470339E-1  -6.711346982582147E1  -4.478331115459764E-1  -6.677318709714884E1  -1.666066798632278E1  -1.198233276101804E2  
 1.255639097744361E9    -1.827991092101316E1  -1.517369556105229E2  -4.508078350737297E-1  -8.059679349395206E1  -4.881237281195170E-1  -8.012398709319385E1  -1.792131362965707E1  -1.577481566840595E2  
 1.260651629072682E9    -1.968460414533453E1   1.683848682146856E2  -5.010402065172269E-1  -9.446341014535078E1  -5.270272974539809E-1  -9.390145236366946E1  -1.957087496862106E1   1.790930312319565E2  
 1.265664160401002E9    -2.173870765238649E1   1.299892463930721E2  -5.248682710827379E-1  -1.075506471822266E2  -5.985052618837315E-1  -1.064918867516619E2  -2.094318422520693E1   1.429306009413512E2  
 1.270676691729323E9    -2.037929318455830E1   9.910688864311081E1  -5.323478965160370E-1  -1.196871144026568E2  -6.146592125146089E-1  -1.204618824148242E2  -2.154825902183222E1   8.963347657182717E1  
 1.275689223057644E9    -1.993659237865938E1   4.917288923303571E1  -5.053637612213847E-1  -1.339903469716491E2  -5.682693314254875E-1  -1.314300669939811E2  -2.027509884202197E1   3.375512809203187E1  
 1.280701754385965E9    -2.003056249316991E1   1.609515116856760E1  -4.704192630670799E-1  -1.453459768865461E2  -5.447331943358083E-1  -1.467074728325636E2  -2.014043715772864E1  -1.160785432360736E1  
 1.285714285714286E9    -1.889986782807909E1  -2.251727259170804E1  -4.526879745078046E-1  -1.593473310340983E2  -5.212379295419811E-1  -1.603455671372596E2  -1.822340729983026E1  -4.018603260443580E1  
 1.290726817042607E9    -1.938051921124383E1  -5.095800290361449E1  -4.350087583397513E-1  -1.737018611630414E2  -5.186092598734916E-1  -1.729489939953499E2  -1.890534148819916E1  -7.662895691751209E1  
 1.295739348370927E9    -1.878112085171949E1  -9.570506060093501E1  -4.661479785849282E-1   1.725880739241555E2  -5.575028034546045E-1   1.739053377166344E2  -1.761295579571208E1  -1.069423675533419E2  
 1.300751879699248E9    -2.004821453941595E1  -1.201199275361744E2  -4.923890183999491E-1   1.590140015157230E2  -5.650163756823705E-1   1.578790203653514E2  -1.731327831999846E1  -1.304236558270636E2  
 1.305764411027569E9    -1.924912558719214E1  -1.594914752409575E2  -5.375597460080707E-1   1.454003783468894E2  -6.490728264912394E-1   1.472045432788149E2  -1.844393442060213E1  -1.792434977148309E2  
 1.310776942355890E9    -1.992539270711054E1   1.622474607401020E2  -5.649376425703122E-1   1.335126929249717E2  -7.016609032378919E-1   1.334178638760978E2  -1.776448178305510E1   1.451082363563431E2  
 1.315789473684211E9    -1.747438466005398E1   1.232402408886066E2  -5.543144455601264E-1   1.196241336572032E2  -6.692556279814225E-1   1.216301219498521E2  -1.697406394396095E1   1.055018467360893E2  
 1.320802005012531E9    -1.647034464241176E1   9.323150760061778E1  -5.823919514583238E-1   1.062759545377562E2  -6.674754801426380E-1   1.084168609542046E2  -1.766694907528965E1   6.965928429338401E1  
 1.325814536340852E9    -1.666728689831371E1   6.389216761958254E1  -5.215620918679393E-1   9.488018013567053E1  -6.845587229944335E-1   9.288337748982769E1  -1.560486371254537E1   2.672895296267651E1  
 1.330827067669173E9    -1.734003364012963E1   3.087008428400409E1  -5.425884933285919E-1   8.036164350352233E1  -6.703344753609452E-1   8.168691877691312E1  -1.553852026220091E1  -2.799592255819510  
 1.335839598997494E9    -1.705760162035429E1   1.415908818493350  -5.335417259630952E-1   6.743351117606703E1  -6.790142568077046E-1   6.731905694676671E1  -1.590874771507250E1  -3.339513391473383E1  
 1.340852130325815E9    -1.910326773954002E1  -3.759561136773097E1  -5.229379648546048E-1   5.321612142407485E1  -6.797597174735877E-1   5.381364932149964E1  -1.579910410728528E1  -6.683375656154183E1  
 1.345864661654135E9    -1.935460928462204E1  -6.670363811613701E1  -5.348734593455424E-1   4.109482915638673E1  -6.552887776731980E-1   4.075129131656416E1  -1.583499605906834E1  -1.008694877006971E2  
 1.350877192982456E9    -1.932594324305338E1  -1.039794295431533E2  -5.209067157862185E-1   2.741712105155849E1  -6.973624237913333E-1   2.818976648975266E1  -1.689799309208650E1  -1.410779269793103E2  
 1.355889724310777E9    -2.027538008088186E1  -1.473415140076725E2  -5.698337056491140E-1   1.409941207324916E1  -6.824948729657598E-1   1.441970003291553E1  -1.737781945525316E1  -1.754436568537920E2  
 1.360902255639098E9    -1.818033562635767E1  -1.766162738073975E2  -5.799900921375065E-1   5.765024701605774E-2  -7.170231323647069E-1   1.774900242835124E-2  -1.794436061853856E1   1.434912561666216E2  
 1.365914786967419E9    -1.877247816563111E1   1.496041724662942E2  -5.988252696175754E-1  -1.152623444501954E1  -7.560110915641604E-1  -1.264511666993943E1  -1.654717321119082E1   1.015200616649542E2  
 1.370927318295739E9    -1.862743313788952E1   1.124986398535909E2  -6.196724705029985E-1  -2.567475593545124E1  -7.756253075978257E-1  -2.741072927306125E1  -1.544894618146407E1   5.458056804104389E1  
 1.375939849624060E9    -1.903176255043242E1   8.138899213902118E1  -6.116178397062194E-1  -3.916917156926390E1  -7.907248140438974E-1  -3.805331329124115E1  -1.585156572380143E1   2.705904544601880E1  
 1.380952380952381E9    -2.105223938497188E1   5.294160087654799E1  -6.190075612779772E-1  -5.236995995688551E1  -7.657445025346986E-1  -5.155330400101584E1  -1.548006598820863E1  -1.067175481786572E1  
 1.385964912280702E9    -2.117018871537004E1   9.249218819930400  -5.901329742731298E-1  -6.592706539847316E1  -7.858294206650092E-1  -6.418107706252953E1  -1.563539811529181E1  -4.082966366091068E1  
 1.390977443609023E9    -2.063901231893346E1  -2.805111714070323E1  -5.720004692425851E-1  -7.946775992455586E1  -7.919077667182941E-1  -7.807832293593346E1  -1.520883609923118E1  -7.487434326620935E1  
 1.395989974937343E9    -2.067164853698733E1  -8.116780582783733E1  -5.875661719442646E-1  -9.431946809120440E1  -7.588473124376864E-1  -9.089790183798340E1  -1.564193572075914E1  -1.126358110650376E2  
 1.401002506265664E9    -1.905972961575789E1  -1.136785959751142E2  -6.372687232519065E-1  -1.076901503413951E2  -8.051471175590153E-1  -1.055017534472167E2  -1.491794253092157E1  -1.469969795338774E2  
 1.406015037593985E9    -1.765689687284774E1  -1.484288032815340E2  -7.077716915101442E-1  -1.203050946373592E2  -8.481005448728076E-1  -1.177992681958628E2  -1.517470351019692E1   1.706984887577509E2  
 1.411027568922306E9    -1.668040985025955E1  -1.720695058957209E2  -7.785985299264077E-1  -1.328930490153196E2  -9.101009725023899E-1  -1.309463836839875E2  -1.461565064249964E1   1.363449882081872E2  
 1.416040100250627E9    -1.528212410353675E1   1.615643158971179E2  -8.379147000095548E-1  -1.462902671276761E2  -9.594911554942893E-1  -1.444356306359346E2  -1.389576644556191E1   1.070852096361534E2  
 1.421052631578947E9    -1.552727177286549E1   1.374130114431555E2  -8.431407322713851E-1  -1.578013340781922E2  -9.780495117251562E-1  -1.581619664723069E2  -1.457329728154044E1   6.977068679703127E1  
 1.426065162907268E9    -1.712209932867581E1   1.044566393396623E2  -7.969159970952627E-1  -1.705323734050838E2  -9.528509192152155E-1  -1.702222811622227E2  -1.434466950873501E1   4.288457234543306E1  
 1.431077694235589E9    -1.826720792733358E1   8.441720098299911E1  -7.190740909433834E-1   1.743058436356980E2  -9.077059907237517E-1   1.767431556878111E2  -1.521887880339447E1   2.961822399188949  
 1.436090225563910E9    -1.946053144905867E1   5.000035489898689E1  -6.632865981417730E-1   1.614695555083694E2  -8.475038218260743E-1   1.645577923125077E2  -1.621411043041636E1  -2.882836232134973E1  
 1.441102756892231E9    -2.102675757897033E1   4.454946318705208  -6.649526816498377E-1   1.484030177531377E2  -8.239052452637170E-1   1.500721739733719E2  -1.623369765152394E1  -6.493650588914998E1  
 1.446115288220552E9    -2.322765242638430E1  -4.233622246298101E1  -6.938433288538721E-1   1.348363700267181E2  -8.460274369182331E-1   1.346750828395543E2  -1.711365996081092E1  -1.136877335618181E2  
 1.451127819548872E9    -2.075707207825425E1  -8.963816694037148E1  -7.438061493173627E-1   1.204542242480895E2  -8.735854185623799E-1   1.241677856993558E2  -1.685049693033670E1  -1.473427036760156E2  
 1.456140350877193E9    -1.877410100339158E1  -1.290478687227019E2  -8.277149979723477E-1   1.077138304800698E2  -9.086357122754935E-1   1.102238597729947E2  -1.601882813079513E1   1.712131209439790E2  
 1.461152882205514E9    -1.774708801710595E1  -1.523672851777361E2  -8.598238438469729E-1   9.474956740974801E1  -9.635555167307497E-1   9.626272770831243E1  -1.562337639010742E1   1.358356138593937E2  
 1.466165413533835E9    -1.814952154364680E1   1.784625822964223E2  -8.647566155966853E-1   8.138482996395527E1  -1.014015043772334   8.333608670338384E1  -1.559267383796048E1   9.800467612191230E1  
 1.471177944862155E9    -1.782260461503015E1   1.466781487297160E2  -8.283692870480637E-1   7.035745162504590E1  -9.896580447546425E-1   6.950936852780311E1  -1.570429141708146E1   6.497332149536932E1  
 1.476190476190476E9    -1.839882357739640E1   1.260354906999677E2  -7.728164982892084E-1   5.520028219213169E1  -9.809969221566921E-1   5.820748092037182E1  -1.624705116033236E1   3.615628445546719E1  
 1.481203007518797E9    -2.095688910906522E1   8.476302633600513E1  -7.794336390139340E-1   4.137603711791990E1  -8.985212353156754E-1   4.470874043719545E1  -1.717134217479385E1  -6.993911448923305  
