#  HZ   S   DB   R     50.00 
! Rohde & Schwarz Vector Network Analyzer 
! Rohde-Schwarz,ZND-2Port,1328517092100682,2.70
! Created: UTC 11/29/2017, 5:37:19 PM
! freq[Hz]                db:S11                  ang:S11                 db:S21                  ang:S21                 db:S12                  ang:S12                 db:S22                  ang:S22
 1.000000000000000E9    -7.959826028339397      -1.883572592225099      -3.143906664759046       8.753526803409443E1    -3.141003277522204       8.748481579951763E1    -9.714819874298964       9.668138696273550
 1.005012531328321E9    -7.981836658592382      -4.179048483764698      -3.124126611433884       8.602342645415799E1    -3.126751140826356       8.603778949641061E1    -9.742475079635661       8.469824813455970
 1.010025062656642E9    -8.006318713171982      -6.333783567367531      -3.109729901543694       8.451137574242458E1    -3.106210894290238       8.449044813171503E1    -9.779032774906701       7.207400149027573
 1.015037593984963E9    -8.042935041284832      -8.610719171379270      -3.095435111873166       8.299887367103274E1    -3.096059094124847       8.301476140261939E1    -9.822946163138898       6.081058877309506
 1.020050125313283E9    -8.074488426863857      -1.080950418311637E1    -3.073948449930712       8.149509388828686E1    -3.080200977916801       8.142121139411810E1    -9.884535621645579       4.754516371061621
 1.025062656641604E9    -8.117871512610078      -1.297446058680260E1    -3.060738661936578       8.000628401826971E1    -3.063734863617466       7.998929045972250E1    -9.914275357720674       3.656458184312857
 1.030075187969925E9    -8.146096284166893      -1.524431405562857E1    -3.046128049881921       7.848335771303968E1    -3.050951292575940       7.845008207728837E1    -9.965829647488446       2.399787408836215
 1.035087719298246E9    -8.193488621972303      -1.750782288501799E1    -3.028954866089917       7.693795748982991E1    -3.025180804784858       7.697817208683263E1    -9.969966618332492       1.371619290184561
 1.040100250626566E9    -8.237605348029334      -1.975209120616319E1    -3.014522315710567       7.542276499418817E1    -3.015339620500005       7.539135156230735E1    -1.004009519679037E1     5.707028878042162E-2
 1.045112781954887E9    -8.287091528374063      -2.213127659351310E1    -3.008309348683235       7.387344504372804E1    -3.006014936740745       7.394741613565486E1    -1.010512403728468E1    -1.012343893494351
 1.050125313283208E9    -8.351798813729625      -2.430240705348384E1    -2.993593270068041       7.240521512306221E1    -2.987986873485635       7.240878109366263E1    -1.013367286582987E1    -2.272977558274757
 1.055137844611529E9    -8.404397196047263      -2.654562198265813E1    -2.973797520656860       7.088102672658026E1    -2.975983478380396       7.085204055914723E1    -1.018170232264209E1    -3.472767919924810
 1.060150375939850E9    -8.454790377701000      -2.874183934213064E1    -2.956195103698259       6.934170477579949E1    -2.967462194044239       6.929893073567884E1    -1.023524113441472E1    -4.800917768720277
 1.065162907268171E9    -8.514334008386182      -3.105986871948675E1    -2.947875040612997       6.777897373244282E1    -2.949310435876223       6.777573150944124E1    -1.027620996295553E1    -5.892883804918140
 1.070175438596491E9    -8.579053628531371      -3.327040231916459E1    -2.933932539595059       6.625665173856238E1    -2.934200934133932       6.625149826983137E1    -1.033076848161834E1    -7.135145605999937
 1.075187969924812E9    -8.650991686584636      -3.555166711022059E1    -2.918648132141601       6.473013054124085E1    -2.915055735934347       6.473575402888939E1    -1.037613752382849E1    -8.225387553491903
 1.080200501253133E9    -8.718342102078555      -3.787161600319000E1    -2.907022290993994       6.319037215134451E1    -2.904952700684919       6.324654053704128E1    -1.043929118526875E1    -9.328031920204865
 1.085213032581454E9    -8.786971344414353      -4.007987218461122E1    -2.896472075394389       6.170484232038785E1    -2.893720737957277       6.164029690150117E1    -1.046804241357461E1    -1.055310297686064E1
 1.090225563909775E9    -8.871636507882561      -4.237030008733036E1    -2.876788110321733       6.013468839497552E1    -2.873870946247503       6.013618448969508E1    -1.053133211963574E1    -1.173251361254297E1
 1.095238095238095E9    -8.949085694509353      -4.459769382489046E1    -2.863459143666500       5.862678900914723E1    -2.863132908419442       5.858745210501819E1    -1.058459093588291E1    -1.285629978274411E1
 1.100250626566416E9    -9.036597914653662      -4.697063214424794E1    -2.851557913682059       5.704131312393769E1    -2.858418131040373       5.710764417396874E1    -1.062918377771843E1    -1.404585554385258E1
 1.105263157894737E9    -9.137225819001866      -4.922725259213623E1    -2.843646794211833       5.547322482153727E1    -2.838005451577223       5.546097192193901E1    -1.069781518112463E1    -1.525692369746731E1
 1.110275689223058E9    -9.218530799727802      -5.157892089494271E1    -2.821720214251620       5.390801710243188E1    -2.827519081907343       5.392835897780861E1    -1.075159631554734E1    -1.633756750716677E1
 1.115288220551379E9    -9.314334143070072      -5.389426317742258E1    -2.809653318326541       5.240894016323187E1    -2.819163370998426       5.236855383113695E1    -1.079868323286734E1    -1.747659091762157E1
 1.120300751879699E9    -9.428338136744083      -5.623894174097429E1    -2.800182607653705       5.081636055873030E1    -2.802644943077323       5.078898713898882E1    -1.086793646148466E1    -1.849644959504537E1
 1.125313283208020E9    -9.526305712194814      -5.860099497584386E1    -2.789483455596256       4.924960546559285E1    -2.791840238846356       4.927351442715967E1    -1.091749334301692E1    -1.969046941336461E1
 1.130325814536341E9    -9.630948798710341      -6.095093178333593E1    -2.777434554777684       4.767811759162370E1    -2.776263242349185       4.771024086127873E1    -1.096738433780437E1    -2.075218569096085E1
 1.135338345864662E9    -9.759406398787577      -6.336429821161275E1    -2.763691837904335       4.611451098233889E1    -2.762200224336989       4.612281052873142E1    -1.102580422027889E1    -2.188781497817367E1
 1.140350877192982E9    -9.877849058728206      -6.565032562592738E1    -2.755120444866079       4.452455781267392E1    -2.758955565194039       4.456005058017751E1    -1.109574437855473E1    -2.286633466399207E1
 1.145363408521303E9    -1.001199080985538E1    -6.807009619797914E1    -2.751927592944381       4.297051779616028E1    -2.745711873965133       4.293361947762855E1    -1.115464106314119E1    -2.407806863062581E1
 1.150375939849624E9    -1.014435463229687E1    -7.040849102596764E1    -2.730996572669162       4.136758346324173E1    -2.731519106556806       4.132120094623956E1    -1.121409638691223E1    -2.512321790750568E1
 1.155388471177945E9    -1.027674724998123E1    -7.290565103858330E1    -2.730666288993140       3.981642173872862E1    -2.727530466562555       3.981341347002660E1    -1.127072288072412E1    -2.603065207764454E1
 1.160401002506266E9    -1.042127914863047E1    -7.531580379233523E1    -2.724406607692713       3.820459040312974E1    -2.715376539953870       3.820428569840473E1    -1.133112404977381E1    -2.706975563828084E1
 1.165413533834586E9    -1.056101739760014E1    -7.782882210865701E1    -2.706841738592400       3.660235785163965E1    -2.709028289733751       3.653101392064248E1    -1.139057301004982E1    -2.818661818751239E1
 1.170426065162907E9    -1.072599476626182E1    -8.033426002881511E1    -2.696799009851778       3.506860266330388E1    -2.701579557225744       3.498771720763385E1    -1.148150197676713E1    -2.913213147009946E1
 1.175438596491228E9    -1.088183046685357E1    -8.276790299590998E1    -2.695291194069681       3.346797815369255E1    -2.694938925237961       3.336440493033086E1    -1.154284686203290E1    -3.019137355016941E1
 1.180451127819549E9    -1.103962054761323E1    -8.518710444843558E1    -2.680331598641719       3.182660000108568E1    -2.682458367533561       3.181148408475497E1    -1.161770215802148E1    -3.109655363042965E1
 1.185463659147870E9    -1.122033793331779E1    -8.778334583660946E1    -2.674341482728553       3.020743138859134E1    -2.680626286664947       3.020338597853618E1    -1.168593207949057E1    -3.209866387589607E1
 1.190476190476191E9    -1.140156112975855E1    -9.034436206501529E1    -2.676074015450900       2.858731310902362E1    -2.677549852484250       2.862123106364816E1    -1.177062670042034E1    -3.313019659809493E1
 1.195488721804511E9    -1.158934517398622E1    -9.284252771417268E1    -2.674623073276252       2.697029360883391E1    -2.668570820093861       2.699004014530638E1    -1.182853457207118E1    -3.401956655688622E1
 1.200501253132832E9    -1.178072948966032E1    -9.560188014098806E1    -2.660104947689534       2.536928286120584E1    -2.659553336221882       2.541464557370613E1    -1.190145577517567E1    -3.497682428836756E1
 1.205513784461153E9    -1.200311584214737E1    -9.822606947642413E1    -2.655495621415144       2.374277741043282E1    -2.653364607555965       2.378726926210581E1    -1.197842034025648E1    -3.584443824138086E1
 1.210526315789474E9    -1.221018615399478E1    -1.008750226842951E2    -2.652116418890643       2.211440742730795E1    -2.652670035512463       2.215185308655923E1    -1.207242862038256E1    -3.672380896829146E1
 1.215538847117795E9    -1.242665263354751E1    -1.034782780719749E2    -2.651729955019917       2.054026665086038E1    -2.649501794316148       2.052397043472752E1    -1.213342420275950E1    -3.775798528720718E1
 1.220551378446115E9    -1.265626917412421E1    -1.063585834695534E2    -2.647859299227861       1.886716957260324E1    -2.647923908430248       1.893117453834324E1    -1.220295001671444E1    -3.862647347279221E1
 1.225563909774436E9    -1.290304034033847E1    -1.090825280221536E2    -2.641367584334393       1.728063839833618E1    -2.649478234377778       1.728790027621184E1    -1.228604137282403E1    -3.938447559572071E1
 1.230576441102757E9    -1.317281717987166E1    -1.120562940115336E2    -2.643495028617410       1.565160637068344E1    -2.635327108630179       1.559333298103982E1    -1.237290311515483E1    -4.022094620478651E1
 1.235588972431078E9    -1.344244899697933E1    -1.150022318382046E2    -2.646290455804743       1.398015619717588E1    -2.638506344993340       1.396138987734735E1    -1.244612584558891E1    -4.106924381575873E1
 1.240601503759399E9    -1.372676988895867E1    -1.179579165528490E2    -2.650836945270275       1.235029718896152E1    -2.647071660881669       1.232499210286180E1    -1.251428551565166E1    -4.170909730668974E1
 1.245614035087719E9    -1.401893812217348E1    -1.209224964185818E2    -2.646566587097257       1.070185925410368E1    -2.650269783792362       1.069514352511606E1    -1.259652258662172E1    -4.243050236352519E1
 1.250626566416040E9    -1.433079762681464E1    -1.241960088235956E2    -2.647649992712451       9.070084722284069      -2.647883302231185       9.073370671337699      -1.268772709492114E1    -4.318483909199413E1
 1.255639097744361E9    -1.465444509000279E1    -1.273404537918789E2    -2.642680658892851       7.363771453109487      -2.642301689003050       7.399423279960956      -1.273106968086898E1    -4.388436128887841E1
 1.260651629072682E9    -1.498224338332884E1    -1.306512775194673E2    -2.656215958409089       5.737173209299763      -2.658490968592551       5.739120946196158      -1.285532374363956E1    -4.462479641053830E1
 1.265664160401002E9    -1.535179509752937E1    -1.340788068611022E2    -2.661834450234839       4.080423353424951      -2.656889277187433       4.123277144798560      -1.291909043702924E1    -4.520838625157657E1
 1.270676691729323E9    -1.571581351370037E1    -1.375938385744571E2    -2.665144383800268       2.420058357678459      -2.660809523910650       2.436343412807552      -1.300465007591033E1    -4.578929922142567E1
 1.275689223057644E9    -1.610558453519542E1    -1.413547599503029E2    -2.677002866589858       7.455406727593408E-1   -2.668599530052656       7.062752283547207E-1   -1.307001655564365E1    -4.640442551305107E1
 1.280701754385965E9    -1.649781875513327E1    -1.450428630809836E2    -2.684211673862670      -9.121299685717487E-1   -2.683745667086561      -9.389784625572241E-1   -1.315797127525570E1    -4.709608975358525E1
 1.285714285714286E9    -1.693562567517954E1    -1.490798844305401E2    -2.690877720148187      -2.601945498052215      -2.686178130702012      -2.567263458134098      -1.324774457751876E1    -4.748634021570518E1
 1.290726817042607E9    -1.739404634922696E1    -1.530607078671904E2    -2.695364965769429      -4.268001987347184      -2.693977033832733      -4.238073298093012      -1.330974089191689E1    -4.797387362256831E1
 1.295739348370927E9    -1.783597417176298E1    -1.575313569906094E2    -2.711891736415537      -5.923644208348707      -2.714766497456319      -5.933759737143002      -1.340639355401129E1    -4.843718962209109E1
 1.300751879699248E9    -1.831239686663647E1    -1.621759552961510E2    -2.719394227978606      -7.592145318120886      -2.720007761225976      -7.600018871034573      -1.346730316083651E1    -4.896764318007773E1
 1.305764411027569E9    -1.878584072851211E1    -1.671049361594664E2    -2.741842026706161      -9.274832888191313      -2.739466646019058      -9.245433236088365      -1.355674520377245E1    -4.932255257270935E1
 1.310776942355890E9    -1.931133549476669E1    -1.723183662876967E2    -2.760705432588896      -1.093025895383597E1    -2.751237643703512      -1.094196787516232E1    -1.361026929927103E1    -4.973555966905045E1
 1.315789473684211E9    -1.986072716535238E1    -1.780816784519105E2    -2.772319515938173      -1.264429803513003E1    -2.773390898406088      -1.267040311103620E1    -1.366921305485158E1    -5.017729742212810E1
 1.320802005012531E9    -2.037154287825681E1     1.756370677954419E2    -2.795788240736647      -1.427501928714444E1    -2.785484454465690      -1.435666458074665E1    -1.375190980207834E1    -5.034198964966254E1
 1.325814536340852E9    -2.089039158854413E1     1.687538287380725E2    -2.802994534633143      -1.599390191277140E1    -2.815512963568558      -1.596806383914989E1    -1.378806843509801E1    -5.063766037035143E1
 1.330827067669173E9    -2.139965339415863E1     1.618592879409527E2    -2.830500869786830      -1.768264461079040E1    -2.830040067736422      -1.765375930073075E1    -1.386674092738204E1    -5.095849537089141E1
 1.335839598997494E9    -2.183151760336688E1     1.538190519132521E2    -2.852279141466463      -1.932866220321187E1    -2.852356854725151      -1.935703818253760E1    -1.391546147948576E1    -5.114690034981649E1
 1.340852130325815E9    -2.223975636863047E1     1.452028518671527E2    -2.873179759704913      -2.099753174207301E1    -2.874925274479662      -2.101850755125311E1    -1.394997658546939E1    -5.140846400409121E1
 1.345864661654135E9    -2.252085845478828E1     1.364926267180261E2    -2.896493488892978      -2.273375445975914E1    -2.902249303414481      -2.263012624039336E1    -1.399243114849328E1    -5.160414898568590E1
 1.350877192982456E9    -2.271573248443581E1     1.269454432907452E2    -2.927740732657413      -2.433940287882533E1    -2.925558189312748      -2.434609738801183E1    -1.403178910839292E1    -5.185819349545213E1
 1.355889724310777E9    -2.276229891667792E1     1.172745050170763E2    -2.957177200606290      -2.601429110746767E1    -2.957975250689672      -2.601963866755179E1    -1.404943704553922E1    -5.183145678519691E1
 1.360902255639098E9    -2.270824163680540E1     1.074956290554215E2    -2.985298547719917      -2.772070547096300E1    -2.984425496864234      -2.773621816057575E1    -1.408690858757489E1    -5.212067561450817E1
 1.365914786967419E9    -2.250336915638874E1     9.844852974461425E1    -3.017051550462082      -2.939761585853439E1    -3.018703929071086      -2.942819405210507E1    -1.410958475835215E1    -5.234710967846958E1
 1.370927318295739E9    -2.221403740254229E1     8.917068634497736E1    -3.047425958270378      -3.105792894489856E1    -3.051079137650011      -3.103424967037398E1    -1.412932287032034E1    -5.226543116137574E1
 1.375939849624060E9    -2.181718791513311E1     8.056274284976522E1    -3.079938644248102      -3.273150743587416E1    -3.083191009599176      -3.269022045406587E1    -1.413316035895335E1    -5.254836777276776E1
 1.380952380952381E9    -2.130575284382890E1     7.244649089006468E1    -3.122191210917907      -3.437369297594860E1    -3.123737136209460      -3.436789828152354E1    -1.413946145678860E1    -5.262762364137362E1
 1.385964912280702E9    -2.082297792816462E1     6.519712546643213E1    -3.155093901349479      -3.601541492712658E1    -3.159831473606185      -3.606708793739005E1    -1.414129838266130E1    -5.271017341230789E1
 1.390977443609023E9    -2.028717053720590E1     5.836008888284476E1    -3.198983110413308      -3.768878643762956E1    -3.194251712298137      -3.764469080985750E1    -1.412266378386706E1    -5.283527459789318E1
 1.395989974937343E9    -1.977218291887559E1     5.190080820455036E1    -3.241274029424408      -3.933822752251275E1    -3.233533501618973      -3.928830743784218E1    -1.413716510671333E1    -5.292553976968767E1
 1.401002506265664E9    -1.917710905183903E1     4.588783817329599E1    -3.276837439313434      -4.098613584046343E1    -3.277619586092506      -4.093310029340223E1    -1.410320864833279E1    -5.289992722155493E1
 1.406015037593985E9    -1.869044771595577E1     4.036340174198400E1    -3.316898911152224      -4.259992834492451E1    -3.325458600242563      -4.260432324181449E1    -1.408758049686115E1    -5.308863982067194E1
 1.411027568922306E9    -1.814772075705809E1     3.517559568497603E1    -3.369739336520108      -4.424922871967265E1    -3.374172012615811      -4.422234852827518E1    -1.405804754926163E1    -5.333869792499564E1
 1.416040100250627E9    -1.766745515187988E1     3.038859735183645E1    -3.412538915598848      -4.585545994071931E1    -3.421444102643794      -4.583412247735607E1    -1.400799768504400E1    -5.339238492755418E1
 1.421052631578947E9    -1.719239574643088E1     2.572302563455760E1    -3.465027121809780      -4.746336920625534E1    -3.467152930538016      -4.743183720569676E1    -1.396179818542173E1    -5.355996275016534E1
 1.426065162907268E9    -1.673962851129189E1     2.128693509983209E1    -3.517876539115617      -4.906206020886950E1    -3.518832402554065      -4.904309065939579E1    -1.392764918168883E1    -5.383144900633551E1
 1.431077694235589E9    -1.629749044582290E1     1.697046105176056E1    -3.568455905430967      -5.065735001378813E1    -3.577631077291016      -5.062891861093195E1    -1.385365383179499E1    -5.406807560415862E1
 1.436090225563910E9    -1.587127020116760E1     1.293641262207149E1    -3.625556238840763      -5.222691633571481E1    -3.622098650266822      -5.226136415025110E1    -1.381313880601108E1    -5.434832115220350E1
 1.441102756892231E9    -1.547954287993527E1     8.972779833388808      -3.680499195283641      -5.380340802105660E1    -3.690676912949954      -5.380605689806897E1    -1.373862006785566E1    -5.457658158608830E1
 1.446115288220552E9    -1.507773831413757E1     5.088603270349894      -3.736775368740208      -5.541731467722287E1    -3.733201204344990      -5.536865210101406E1    -1.365763841616376E1    -5.483485192374419E1
 1.451127819548872E9    -1.473140166944036E1     1.390031386841948      -3.794628165994327      -5.693518562220686E1    -3.784551940127754      -5.697879936796031E1    -1.359245010981743E1    -5.519062454045865E1
