#  HZ   S   DB   R     50.00 
! Rohde & Schwarz Vector Network Analyzer 
! Rohde-Schwarz,ZND-2Port,1328517092100682,2.70
! Created: UTC 11/29/2017, 5:32:53 PM
! freq[Hz]                db:S11                  ang:S11
 1.000000000000000E9    -6.359170982536019      -1.591040796502607E2
 1.005012531328321E9    -6.351070471475411      -1.599648189624886E2
 1.010025062656642E9    -6.360968309339011      -1.607950696949972E2
 1.015037593984963E9    -6.369566654718989      -1.616334966583852E2
 1.020050125313283E9    -6.356663603817370      -1.624669804729543E2
 1.025062656641604E9    -6.354727723561362      -1.633006750723015E2
 1.030075187969925E9    -6.365748278953234      -1.641222398089176E2
 1.035087719298246E9    -6.362757156133762      -1.649077678252696E2
 1.040100250626566E9    -6.376770905719979      -1.657638160574465E2
 1.045112781954887E9    -6.383162445460418      -1.665523468663942E2
 1.050125313283208E9    -6.395011498083746      -1.673918083500183E2
 1.055137844611529E9    -6.401361533365671      -1.682547421219622E2
 1.060150375939850E9    -6.413946816862931      -1.691359365784522E2
 1.065162907268171E9    -6.431515552163242      -1.699349619849988E2
 1.070175438596491E9    -6.446634177006355      -1.708575484291722E2
 1.075187969924812E9    -6.449675054946605      -1.717571169667748E2
 1.080200501253133E9    -6.461615867154604      -1.726367749722169E2
 1.085213032581454E9    -6.476149165384620      -1.735092837837140E2
 1.090225563909775E9    -6.471467774764347      -1.744669113030000E2
 1.095238095238095E9    -6.481088704149592      -1.755132807976196E2
 1.100250626566416E9    -6.484663902874340      -1.763700738000379E2
 1.105263157894737E9    -6.489917062112768      -1.772975133741346E2
 1.110275689223058E9    -6.503573438274320      -1.780635181166875E2
 1.115288220551379E9    -6.481727077735100      -1.790764107936026E2
 1.120300751879699E9    -6.472552915751101      -1.799541296087287E2
 1.125313283208020E9    -6.488372091283654       1.791199713719812E2
 1.130325814536341E9    -6.490888537517828       1.783294432464159E2
 1.135338345864662E9    -6.483748727149656       1.774217472717573E2
 1.140350877192982E9    -6.489244603476099       1.765803418118525E2
 1.145363408521303E9    -6.490436913775254       1.757528229209611E2
 1.150375939849624E9    -6.500526371771981       1.748843014024495E2
 1.155388471177945E9    -6.495646146996719       1.740720946820956E2
 1.160401002506266E9    -6.500241595664692       1.731989173017876E2
 1.165413533834586E9    -6.507991279509700       1.723071628110088E2
 1.170426065162907E9    -6.516661733693758       1.714174052438888E2
 1.175438596491228E9    -6.530758567459969       1.705851512639202E2
 1.180451127819549E9    -6.552223988280521       1.696916309110094E2
 1.185463659147870E9    -6.544516216483994       1.687391840973608E2
 1.190476190476191E9    -6.562895047635062       1.678364915156251E2
 1.195488721804511E9    -6.574833609615763       1.669380085096595E2
 1.200501253132832E9    -6.578623864974242       1.659948553018027E2
 1.205513784461153E9    -6.571619970899442       1.651206942724037E2
 1.210526315789474E9    -6.582908876904643       1.641063834924409E2
 1.215538847117795E9    -6.570692971405455       1.632558804459961E2
 1.220551378446115E9    -6.574673861671076       1.623897648773622E2
 1.225563909774436E9    -6.586893653848583       1.613451760635865E2
 1.230576441102757E9    -6.591215978546982       1.604884792163418E2
 1.235588972431078E9    -6.584222049382706       1.596106857501002E2
 1.240601503759399E9    -6.583419040651681       1.587626973227949E2
 1.245614035087719E9    -6.586042591528264       1.579001808249020E2
 1.250626566416040E9    -6.582073220907246       1.569841965789443E2
 1.255639097744361E9    -6.578530593720600       1.561556417190970E2
 1.260651629072682E9    -6.574626427031602       1.552598060587958E2
 1.265664160401002E9    -6.575671066394139       1.543938160191075E2
 1.270676691729323E9    -6.581673721386913       1.535244330378165E2
 1.275689223057644E9    -6.586953411056467       1.526230048742943E2
 1.280701754385965E9    -6.587980364466731       1.517223004033472E2
 1.285714285714286E9    -6.586255399627960       1.508697546282427E2
 1.290726817042607E9    -6.595203383834967       1.499208350073482E2
 1.295739348370927E9    -6.594641588098581       1.490014450468269E2
 1.300751879699248E9    -6.601196105529279       1.481239849367292E2
 1.305764411027569E9    -6.607861828352972       1.472117655591630E2
 1.310776942355890E9    -6.611427454099160       1.462486697533980E2
 1.315789473684211E9    -6.609177132824150       1.453513999413460E2
 1.320802005012531E9    -6.606927738751982       1.443695410614116E2
 1.325814536340852E9    -6.613123577993623       1.435043427066870E2
 1.330827067669173E9    -6.613972291359990       1.426773384531027E2
 1.335839598997494E9    -6.601456473744469       1.416083873925919E2
 1.340852130325815E9    -6.608584917498318       1.406997679465555E2
 1.345864661654135E9    -6.609558255177227       1.398263048023275E2
 1.350877192982456E9    -6.602817952279654       1.388979464281360E2
 1.355889724310777E9    -6.606426922173717       1.379924117193035E2
 1.360902255639098E9    -6.610731921949159       1.371393046187768E2
 1.365914786967419E9    -6.615992561872605       1.362068856909408E2
 1.370927318295739E9    -6.619929107876294       1.353615528626070E2
 1.375939849624060E9    -6.629449776699897       1.345630836580629E2
 1.380952380952381E9    -6.631399935322810       1.336567623849992E2
 1.385964912280702E9    -6.629754471172216       1.327987383194815E2
 1.390977443609023E9    -6.635974479844843       1.319961852915538E2
 1.395989974937343E9    -6.639429345960918       1.311557943612884E2
 1.401002506265664E9    -6.650132302299856       1.303093357933734E2
 1.406015037593985E9    -6.644319400887360       1.294359442065195E2
 1.411027568922306E9    -6.645069465691556       1.285796299773195E2
 1.416040100250627E9    -6.647254182921457       1.276140523224138E2
 1.421052631578947E9    -6.623552869906590       1.267133703900624E2
 1.426065162907268E9    -6.619034686808238       1.258403378540145E2
 1.431077694235589E9    -6.622688040942411       1.249331645401125E2
 1.436090225563910E9    -6.611109766123651       1.240567053175129E2
 1.441102756892231E9    -6.597879296129961       1.230460616448709E2
 1.446115288220552E9    -6.603970707056842       1.221901729097755E2
 1.451127819548872E9    -6.598363357847132       1.212754148450279E2
 1.456140350877193E9    -6.593835056331240       1.203829197473420E2
 1.461152882205514E9    -6.584733933289488       1.194847326074803E2
 1.466165413533835E9    -6.584136667504795       1.186434285909212E2
 1.471177944862155E9    -6.576640517974052       1.177461956633534E2
 1.476190476190476E9    -6.570175273211808       1.168751535727954E2
 1.481203007518797E9    -6.567801096292822       1.160258677694388E2
 1.486215538847118E9    -6.567540060824388       1.151378255151243E2
 1.491228070175439E9    -6.570141272582648       1.142584455794108E2
 1.496240601503759E9    -6.574928207706990       1.134066735532494E2
 1.501253132832080E9    -6.573466830824469       1.124438544478912E2
 1.506265664160401E9    -6.576323228294832       1.115785128828106E2
 1.511278195488722E9    -6.573203374295208       1.106713350865279E2
 1.516290726817043E9    -6.584391584345259       1.097733184375388E2
 1.521303258145363E9    -6.582664550607717       1.088799249297911E2
 1.526315789473684E9    -6.586501875323613       1.080093738394197E2
 1.531328320802005E9    -6.592836620561613       1.071748809024900E2
 1.536340852130326E9    -6.589165909659740       1.063121300967220E2
 1.541353383458647E9    -6.587858244661459       1.055368942841761E2
 1.546365914786967E9    -6.583192416648778       1.046810291375020E2
 1.551378446115288E9    -6.585016013430570       1.038176725637378E2
 1.556390977443609E9    -6.572777080960552       1.029980814855509E2
 1.561403508771930E9    -6.569680799140069       1.021461714237432E2
 1.566416040100251E9    -6.563346659825029       1.012947060520628E2
 1.571428571428572E9    -6.547632433535753       1.004668332702356E2
 1.576441102756892E9    -6.550396633086840       9.968226277486374E1
 1.581453634085213E9    -6.545037205688473       9.881975704509361E1
 1.586466165413534E9    -6.540163829132530       9.797381186865438E1
 1.591478696741855E9    -6.535677643527745       9.713756357540784E1
 1.596491228070175E9    -6.538152396532602       9.628383842483785E1
 1.601503759398496E9    -6.539848166619708       9.550566747899241E1
 1.606516290726817E9    -6.531895765985211       9.466782530949308E1
 1.611528822055138E9    -6.529780174573000       9.381359213684829E1
 1.616541353383459E9    -6.535673287750299       9.299325120000968E1
 1.621553884711780E9    -6.529305721197386       9.211791080855855E1
 1.626566416040100E9    -6.535278576397808       9.129872364673076E1
 1.631578947368421E9    -6.522581353193536       9.043859948585069E1
 1.636591478696742E9    -6.523938970696875       8.957726715996819E1
 1.641604010025063E9    -6.520137320469511       8.876001317946931E1
 1.646616541353384E9    -6.513660573188551       8.794641171537526E1
 1.651629072681704E9    -6.499424636826724       8.704128875276595E1
 1.656641604010025E9    -6.521045989990906       8.609549425310570E1
 1.661654135338346E9    -6.527750295076610       8.551318696791275E1
 1.666666666666667E9    -6.508665818832006       8.481573575292212E1
 1.671679197994988E9    -6.500307780736748       8.399967914751792E1
 1.676691729323309E9    -6.482929140783944       8.329605845448320E1
 1.681704260651629E9    -6.473969058003495       8.246911691269277E1
 1.686716791979950E9    -6.459192970901753       8.168992118601652E1
 1.691729323308271E9    -6.457463902468213       8.089244598553437E1
 1.696741854636591E9    -6.447618413559755       8.007348556230440E1
 1.701754385964912E9    -6.439724657717515       7.922607173493891E1
 1.706766917293233E9    -6.435567863554632       7.844899886398208E1
 1.711779448621554E9    -6.430981280116395       7.766414182656956E1
 1.716791979949875E9    -6.430115356469869       7.687075392115334E1
 1.721804511278195E9    -6.424562607027146       7.604577590937308E1
 1.726817042606516E9    -6.425423489598245       7.529734166504493E1
 1.731829573934837E9    -6.419468666916798       7.447438300172918E1
 1.736842105263158E9    -6.413879000202837       7.371929556210462E1
 1.741854636591479E9    -6.403578678054904       7.288083237059350E1
 1.746867167919800E9    -6.395002530872963       7.211715645816594E1
 1.751879699248120E9    -6.392644767416127       7.120827514674851E1
 1.756892230576441E9    -6.384037556873038       7.045622178817681E1
 1.761904761904762E9    -6.366172720674555       6.966693306604645E1
 1.766917293233083E9    -6.359011260545565       6.885515909197648E1
 1.771929824561404E9    -6.352329515634870       6.809488323180855E1
 1.776942355889724E9    -6.347765163646023       6.731746436961805E1
 1.781954887218045E9    -6.328499655164105       6.654853942345524E1
 1.786967418546366E9    -6.317446075310511       6.578607092596518E1
 1.791979949874687E9    -6.312414262464716       6.502522845030144E1
 1.796992481203008E9    -6.304183024052447       6.424745570460075E1
 1.802005012531328E9    -6.288904243123392       6.345775910261735E1
 1.807017543859649E9    -6.273265569547483       6.274504958232060E1
 1.812030075187970E9    -6.281047822044084       6.195695161571413E1
 1.817042606516291E9    -6.264258428900584       6.112540903924047E1
 1.822055137844612E9    -6.269659472424949       6.032313478467496E1
 1.827067669172932E9    -6.256026391986985       5.958996556821282E1
 1.832080200501253E9    -6.255107132977901       5.877391650018469E1
 1.837092731829574E9    -6.254420325691053       5.800557824177263E1
 1.842105263157895E9    -6.247170474049447       5.720068297817382E1
 1.847117794486216E9    -6.240186725432703       5.641184458970315E1
 1.852130325814536E9    -6.229544894868350       5.567243125320364E1
 1.857142857142857E9    -6.226931717506769       5.485068790398193E1
 1.862155388471178E9    -6.220696086589321       5.402764051663871E1
 1.867167919799499E9    -6.209422168586636       5.326651658993620E1
 1.872180451127820E9    -6.209899901739257       5.243410980157353E1
 1.877192982456141E9    -6.202910276632347       5.170272819310674E1
 1.882205513784461E9    -6.193973180725001       5.086961462991639E1
 1.887218045112782E9    -6.186326761682143       5.016248265906310E1
 1.892230576441103E9    -6.177935994170158       4.942391285037705E1
 1.897243107769424E9    -6.172617571015080       4.864492955680683E1
 1.902255639097745E9    -6.162747274059144       4.785872605386054E1
 1.907268170426065E9    -6.159611684744700       4.712328065399082E1
 1.912280701754386E9    -6.152433564549527       4.637491145718431E1
 1.917293233082707E9    -6.151924842819140       4.557033664127683E1
 1.922305764411027E9    -6.142198143662982       4.486765609923485E1
 1.927318295739348E9    -6.143150268684840       4.410476443923839E1
 1.932330827067669E9    -6.133207846696219       4.333058518132349E1
 1.937343358395990E9    -6.133791690679518       4.258400414754956E1
 1.942355889724311E9    -6.130048437876772       4.179644001960009E1
 1.947368421052632E9    -6.126418159567292       4.106964348836918E1
 1.952380952380952E9    -6.127058411824616       4.030866631459418E1
 1.957393483709273E9    -6.122104739976978       3.956957030940156E1
 1.962406015037594E9    -6.120429509274569       3.881286994952838E1
 1.967418546365915E9    -6.108062262446766       3.800442805185499E1
 1.972431077694236E9    -6.106178689080521       3.731804461436934E1
 1.977443609022556E9    -6.098239135680150       3.652839120991785E1
 1.982456140350877E9    -6.097588490424423       3.574276231350311E1
 1.987468671679198E9    -6.091834779071079       3.504055346913935E1
 1.992481203007519E9    -6.083692334901496       3.428455108085882E1
 1.997493734335840E9    -6.073020687930590       3.349886388330484E1
 2.002506265664161E9    -6.077145852779955       3.280724351242380E1
 2.007518796992481E9    -6.073282737051842       3.200727599762431E1
 2.012531328320802E9    -6.066648533551456       3.123837553439516E1
 2.017543859649123E9    -6.063097428187518       3.052008008826268E1
 2.022556390977444E9    -6.062318388046064       2.976984716394775E1
 2.027568922305764E9    -6.056752349817625       2.899720691853289E1
 2.032581453634085E9    -6.049786277400414       2.825820008429706E1
 2.037593984962406E9    -6.054727341815600       2.751792738372269E1
 2.042606516290727E9    -6.049285471289241       2.672994558463125E1
 2.047619047619048E9    -6.053731727425626       2.602174490307325E1
 2.052631578947369E9    -6.056367325597583       2.520735353535125E1
 2.057644110275689E9    -6.054976221346776       2.449276924219013E1
 2.062656641604010E9    -6.044143722605968       2.376888263480234E1
 2.067669172932331E9    -6.048950715224395       2.297605254048566E1
 2.072681704260652E9    -6.048478705092074       2.220562683977449E1
 2.077694235588973E9    -6.051269110870559       2.146722047454347E1
 2.082706766917293E9    -6.050395324670193       2.071584751262567E1
 2.087719298245614E9    -6.047836992728906       2.000600671534024E1
 2.092731829573935E9    -6.046522347714570       1.922821795810339E1
 2.097744360902256E9    -6.045426377324297       1.853276083406874E1
 2.102756892230577E9    -6.041418456229898       1.775295853089152E1
 2.107769423558897E9    -6.039740935199110       1.699384817733044E1
 2.112781954887218E9    -6.038489233200179       1.627869475732211E1
 2.117794486215539E9    -6.037534804352851       1.554837278249014E1
 2.122807017543860E9    -6.040130773648503       1.479865737585379E1
 2.127819548872181E9    -6.037778691303762       1.405445308331709E1
 2.132832080200501E9    -6.034067670735675       1.335494347047876E1
 2.137844611528822E9    -6.037496254309827       1.262063057016660E1
 2.142857142857143E9    -6.033200782983656       1.185648343317651E1
 2.147869674185464E9    -6.040218747946337       1.114639704043058E1
 2.152882205513784E9    -5.587825764255977       9.695620241566370
 2.157894736842105E9    -5.586205027528164       9.033806404313690
 2.162907268170426E9    -5.583738416520222       8.309897124831425
 2.167919799498747E9    -5.582478544426920       7.609346093336908
 2.172932330827067E9    -5.584661659240984       6.962810971483820
 2.177944862155389E9    -5.584048406967349       6.203393590912869
 2.182957393483709E9    -5.586134038251456       5.577653689085429
 2.187969924812030E9    -5.583190889495296       4.836117700420551
 2.192982456140351E9    -5.587256862247370       4.142627621220446
 2.197994987468672E9    -5.589831586132682       3.504163420661175
 2.203007518796992E9    -5.582818091882034       2.789019921691480
 2.208020050125313E9    -5.588650105092610       2.124045655661137
 2.213032581453634E9    -5.582202872604825       1.439291015606924
 2.218045112781955E9    -5.580854562261659       7.375568486468246E-1
 2.223057644110276E9    -5.577071065867280       6.629892582537049E-2
 2.228070175438597E9    -5.577849782201939      -5.902932092417806E-1
 2.233082706766917E9    -5.580864234492199      -1.245543218263335
 2.238095238095238E9    -5.583550799103117      -1.991357334274298
 2.243107769423559E9    -5.584917497346130      -2.649826399498148
 2.248120300751880E9    -5.584775409252450      -3.335779615475255
 2.253132832080200E9    -5.586556435514753      -3.967214924049401
 2.258145363408522E9    -5.592342588767076      -4.651795647930081
 2.263157894736842E9    -5.585536768597516      -5.316266691927377
 2.268170426065163E9    -5.593034923105547      -6.062200339152684
 2.273182957393484E9    -5.592485728441140      -6.717848132705544
 2.278195488721805E9    -5.594903296073232      -7.423116818448428
 2.283208020050125E9    -5.599104358589850      -8.151011325865218
 2.288220551378446E9    -5.600930244361011      -8.801297017558696
 2.293233082706767E9    -5.604906233007209      -9.539194091494565
 2.298245614035088E9    -5.601070019534939      -1.019427987888941E1
 2.303258145363409E9    -5.609162225690465      -1.089742021343283E1
 2.308270676691730E9    -5.612946215475326      -1.159563349557877E1
 2.313283208020050E9    -5.611805094676025      -1.231880581783656E1
 2.318295739348371E9    -5.617803897090954      -1.296303252653527E1
 2.323308270676692E9    -5.625301088594469      -1.364093978384439E1
 2.328320802005013E9    -5.628457666706417      -1.435327681491493E1
 2.333333333333334E9    -5.626233121293622      -1.502282091313691E1
 2.338345864661655E9    -5.628984562863588      -1.567521065950414E1
 2.343358395989975E9    -5.631112002571241      -1.638836046763809E1
 2.348370927318296E9    -5.635341683763627      -1.708896605168320E1
 2.353383458646617E9    -5.633069773338152      -1.776858957820615E1
 2.358395989974937E9    -5.639840255881170      -1.846137096292286E1
 2.363408521303258E9    -5.649718243074521      -1.916586896095790E1
 2.368421052631579E9    -5.654246009719952      -1.987584148183313E1
 2.373433583959900E9    -5.667706632518258      -2.059487025312673E1
 2.378446115288220E9    -5.665270566264255      -2.128481895071442E1
 2.383458646616541E9    -5.676023099627741      -2.197222596075610E1
 2.388471177944862E9    -5.679484847275987      -2.271443481745635E1
 2.393483709273183E9    -5.686869176439762      -2.340336830161509E1
 2.398496240601504E9    -5.707522471116594      -2.405562928221893E1
 2.403508771929825E9    -5.702581701238714      -2.465404978970978E1
 2.408521303258145E9    -5.701887960679391      -2.537362016296368E1
 2.413533834586466E9    -5.697853364508886      -2.613637499241493E1
 2.418546365914787E9    -5.707595720734414      -2.679985891270935E1
 2.423558897243108E9    -5.714094513808616      -2.753199575641569E1
 2.428571428571428E9    -5.714618384098876      -2.824956349520291E1
 2.433583959899750E9    -5.723243990390362      -2.896353302100827E1
