#  HZ   S   DB   R     50.00 
! Rohde & Schwarz Vector Network Analyzer 
! Rohde-Schwarz,ZND-2Port,1328517092100682,2.70
! Created: UTC 11/29/2017, 5:40:35 PM
! freq[Hz]                db:S11                  ang:S11                 db:S21                  ang:S21                 db:S12                  ang:S12                 db:S22                  ang:S22
 1.000000000000000E9    -5.443430472146470       1.100676326258159E1    -1.628798131333238E1    -8.556446545900269E1    -1.629202270874374E1    -8.544358276677500E1    -3.901040668012116       1.376812402527155E1
 1.005012531328321E9    -5.491458986960460       9.088104417558524      -1.565473694749861E1    -8.681356352799949E1    -1.564956518834128E1    -8.674669641401191E1    -3.949800696234713       1.172095876498833E1
 1.010025062656642E9    -5.537324022047829       7.110798453490637      -1.508334318831909E1    -8.834671149827940E1    -1.508452420857891E1    -8.829639533096089E1    -4.016233347160123       9.717754168556168
 1.015037593984963E9    -5.575135847594162       5.174371358662984      -1.451884890191580E1    -8.977682304430384E1    -1.452343976752661E1    -8.971538378127288E1    -4.077105177097836       7.637357455840188
 1.020050125313283E9    -5.622777250718122       3.236456411087937      -1.401658081316327E1    -9.128924302093319E1    -1.402372711430564E1    -9.136088138383603E1    -4.140535486157278       5.512084022854362
 1.025062656641604E9    -5.684671872926575       1.340888495231454      -1.354025240893582E1    -9.290022852583628E1    -1.354294340332685E1    -9.288755515557732E1    -4.199351564541765       3.467051939739037
 1.030075187969925E9    -5.739802686313022      -6.070973690670155E-1   -1.308322773408386E1    -9.452360764703174E1    -1.308427530614243E1    -9.458992191129832E1    -4.274649447355224       1.398144162315802
 1.035087719298246E9    -5.801157278386652      -2.595015961806076      -1.265322647707229E1    -9.625986175878434E1    -1.265318297003493E1    -9.617918145843352E1    -4.339936764085169      -6.090319088953432E-1
 1.040100250626566E9    -5.865323038619726      -4.454717535689765      -1.225326080710065E1    -9.793072354633731E1    -1.225362757992512E1    -9.805350300316134E1    -4.429941569079376      -2.680981600198774
 1.045112781954887E9    -5.943727889434937      -6.381541663455815      -1.188760166536943E1    -9.969763587071240E1    -1.187819234222711E1    -9.972343245070280E1    -4.511663208753426      -4.783017552966570
 1.050125313283208E9    -6.012318825470051      -8.314522019799657      -1.152020920126287E1    -1.015103384907365E2    -1.152044376524827E1    -1.014870943517405E2    -4.608228807590757      -6.751563576239872
 1.055137844611529E9    -6.087918538526043      -1.026816403496831E1    -1.117558645250960E1    -1.033079862053879E2    -1.117788316635638E1    -1.032910214489366E2    -4.704634564604889      -8.892298070898477
 1.060150375939850E9    -6.160836284679253      -1.210106875534271E1    -1.085177751284906E1    -1.050448559426881E2    -1.084835355344325E1    -1.051442090958596E2    -4.794702963407161      -1.089774465571925E1
 1.065162907268171E9    -6.254585136874109      -1.402798222868545E1    -1.054065756468294E1    -1.069347423513474E2    -1.055079110415619E1    -1.069043495002918E2    -4.902871997444284      -1.299585314889273E1
 1.070175438596491E9    -6.331272358702083      -1.594700249610139E1    -1.024026222555705E1    -1.088237916218516E2    -1.025051742971433E1    -1.087483823163010E2    -5.006726780523790      -1.511882482224914E1
 1.075187969924812E9    -6.433382741970098      -1.780550375003078E1    -9.969214129751659      -1.105856955300817E2    -9.969625713134011      -1.105800449481478E2    -5.129295831790865      -1.709470368396477E1
 1.080200501253133E9    -6.525707965731320      -1.970334936842883E1    -9.708209429980526      -1.124157190638185E2    -9.709873858718613      -1.124853470211323E2    -5.232595917785848      -1.920939416784990E1
 1.085213032581454E9    -6.622927150655880      -2.155762924479178E1    -9.442698595238207      -1.143133870095173E2    -9.447520319768126      -1.143370790216723E2    -5.356856522728294      -2.119611929732182E1
 1.090225563909775E9    -6.735531702278123      -2.339320410131698E1    -9.195025224912140      -1.161801289975860E2    -9.200765980122245      -1.161920398280516E2    -5.484166002650854      -2.331843983586360E1
 1.095238095238095E9    -6.846466718861991      -2.525703969049678E1    -8.965538224214315      -1.181034237764810E2    -8.972786706316413      -1.181058048117899E2    -5.620488955416882      -2.537922003006880E1
 1.100250626566416E9    -6.953588576496238      -2.707537995755368E1    -8.738495679322814      -1.199539366688078E2    -8.739652955398279      -1.199925678275402E2    -5.759263115717053      -2.740898353410322E1
 1.105263157894737E9    -7.075900248409788      -2.896891110429819E1    -8.521227173848155      -1.219071219882907E2    -8.534256498481984      -1.219249086965545E2    -5.907929583453011      -2.946397490095862E1
 1.110275689223058E9    -7.200101265112990      -3.074792763387120E1    -8.320315594875263      -1.237612487460874E2    -8.315088389416983      -1.238233891418816E2    -6.048726383913284      -3.161329815329579E1
 1.115288220551379E9    -7.341687231095166      -3.255195230690973E1    -8.126423987951284      -1.257394009196071E2    -8.124176607474867      -1.256873942211421E2    -6.204627461850957      -3.358518956359167E1
 1.120300751879699E9    -7.476151763203261      -3.436588154347164E1    -7.938075992377160      -1.276353085650215E2    -7.928709368977441      -1.276167514746518E2    -6.361049076219386      -3.567778199399420E1
 1.125313283208020E9    -7.612734886833811      -3.615052486912891E1    -7.754813220931500      -1.295398367418873E2    -7.754522152199637      -1.295027184586221E2    -6.524471537013655      -3.766062456298966E1
 1.130325814536341E9    -7.766931778020881      -3.803240656001369E1    -7.584290686826538      -1.314302354199107E2    -7.588240417440110      -1.314269757001025E2    -6.714094158717146      -3.965407021658625E1
 1.135338345864662E9    -7.913355473933060      -3.976812587233372E1    -7.421892871195902      -1.333512774017049E2    -7.416124748567327      -1.333772240309365E2    -6.875039943819110      -4.172678758649992E1
 1.140350877192982E9    -8.063259641383979      -4.148564110005297E1    -7.258363160628658      -1.352860908515325E2    -7.256416627916868      -1.353229060156728E2    -7.060536081110243      -4.375489032392482E1
 1.145363408521303E9    -8.238452173977155      -4.317389743715838E1    -7.113918303186861      -1.372364680865028E2    -7.115165578397036      -1.372416124591258E2    -7.271936779111638      -4.570467380880185E1
 1.150375939849624E9    -8.409432964867030      -4.493852864649895E1    -6.962438538414113      -1.391330654737425E2    -6.960312370350885      -1.391861884609020E2    -7.463646431628575      -4.781320156773055E1
 1.155388471177945E9    -8.588297558548124      -4.664857762429218E1    -6.828918740538561      -1.411146502480042E2    -6.821843627750896      -1.410969776737292E2    -7.684233434346237      -4.974983441764695E1
 1.160401002506266E9    -8.787631047402453      -4.833408081028910E1    -6.701381820822188      -1.430101683456782E2    -6.702158632530076      -1.430206122434811E2    -7.909670057532207      -5.182984689497032E1
 1.165413533834586E9    -8.961778214130098      -5.004815083442274E1    -6.565487566472616      -1.449723281785796E2    -6.572771765415420      -1.450280593277855E2    -8.146324303142338      -5.377503315123954E1
 1.170426065162907E9    -9.160214480312041      -5.168232124677019E1    -6.450702288793181      -1.469081632162279E2    -6.453389760733556      -1.469261935140224E2    -8.383372752121760      -5.576687077840439E1
 1.175438596491228E9    -9.368387861942491      -5.335996803628566E1    -6.342663263570589      -1.488282502051748E2    -6.340969729586917      -1.488847385197036E2    -8.645482451163693      -5.774339805812436E1
 1.180451127819549E9    -9.578137074697551      -5.484753552960623E1    -6.219105179988706      -1.507567906603806E2    -6.223514999428428      -1.508154914321030E2    -8.900688794765031      -5.969036409280036E1
 1.185463659147870E9    -9.810266965594119      -5.648460887061035E1    -6.122578354179052      -1.527914969706955E2    -6.117298214240604      -1.527647278112274E2    -9.177149610121525      -6.166564759486219E1
 1.190476190476191E9    -1.003858738189526E1    -5.802085232805948E1    -6.025742346740816      -1.547518373995238E2    -6.029519890633398      -1.546904843116998E2    -9.473792678618894      -6.359045790768934E1
 1.195488721804511E9    -1.028282864544392E1    -5.958190381122419E1    -5.930907045954497      -1.567154340081902E2    -5.935755998982223      -1.566687705153886E2    -9.777240392946867      -6.549414198957273E1
 1.200501253132832E9    -1.054036332618666E1    -6.109873452992464E1    -5.844068084939594      -1.585921225296765E2    -5.851484780835906      -1.586101473243416E2    -1.007289453103135E1    -6.742657533402938E1
 1.205513784461153E9    -1.080312307568751E1    -6.246116598681160E1    -5.756580925477762      -1.605664363404759E2    -5.756939483349814      -1.606011831306142E2    -1.042939550748599E1    -6.926787226983244E1
 1.210526315789474E9    -1.107415411206161E1    -6.392719867659317E1    -5.676742181667561      -1.625353446897996E2    -5.677319663255723      -1.625414776475218E2    -1.078392313845351E1    -7.117765386156034E1
 1.215538847117795E9    -1.136310116427762E1    -6.518679552050085E1    -5.612166445966098      -1.645145209449534E2    -5.605991001746912      -1.645091231539369E2    -1.114312456285771E1    -7.312383359640738E1
 1.220551378446115E9    -1.167650675587332E1    -6.661097510084206E1    -5.532401238634673      -1.665013472817314E2    -5.538989920562953      -1.664590969215547E2    -1.151175691417808E1    -7.481906608138120E1
 1.225563909774436E9    -1.198363489790577E1    -6.788935920538380E1    -5.461975302288263      -1.684772148053459E2    -5.476718622865415      -1.684656768235574E2    -1.194877563920066E1    -7.659293455887664E1
 1.230576441102757E9    -1.231773864337020E1    -6.908436627250858E1    -5.414157738356843      -1.704350041135265E2    -5.417893669538758      -1.704498708687203E2    -1.237516390958432E1    -7.842841884487793E1
 1.235588972431078E9    -1.265380270757163E1    -7.015409562999710E1    -5.357114757101837      -1.724174650456926E2    -5.361418423247800      -1.724252799896011E2    -1.283169811572494E1    -7.992741905483103E1
 1.240601503759399E9    -1.301789880726722E1    -7.126015253088563E1    -5.306487527932543      -1.743724874581955E2    -5.310901719302901      -1.743527364682752E2    -1.332560388226928E1    -8.148527223011955E1
 1.245614035087719E9    -1.343296055375483E1    -7.198684131102111E1    -5.268323034774857      -1.763350116698209E2    -5.267426989057005      -1.763817596207813E2    -1.386516324901883E1    -8.294580130627570E1
 1.250626566416040E9    -1.380152888704247E1    -7.297510005877243E1    -5.216294117646130      -1.783512646595095E2    -5.229638118787126      -1.783549430754129E2    -1.443965070531695E1    -8.432918353359125E1
 1.255639097744361E9    -1.422628639135586E1    -7.365878075426248E1    -5.184351646351407       1.796891860007443E2    -5.187914144280123       1.796639743212458E2    -1.504069974317152E1    -8.570426078981572E1
 1.260651629072682E9    -1.467537335354344E1    -7.422798769762522E1    -5.157007727988155       1.776345906780645E2    -5.153224408812750       1.776337030878895E2    -1.568614267927375E1    -8.693396160070091E1
 1.265664160401002E9    -1.512835479875617E1    -7.457613070141485E1    -5.120404378240556       1.756752712223877E2    -5.131655505160513       1.756361539587212E2    -1.639272393336112E1    -8.798679468074393E1
 1.270676691729323E9    -1.561861799543564E1    -7.477929959567169E1    -5.108298981661084       1.736866973529264E2    -5.109627930810165       1.736715015149345E2    -1.717259870185635E1    -8.851863592708820E1
 1.275689223057644E9    -1.610489679099112E1    -7.478688751936535E1    -5.085765125427867       1.716597297910927E2    -5.095258755897618       1.716511799327765E2    -1.802187020728686E1    -8.903117414465790E1
 1.280701754385965E9    -1.663601681194419E1    -7.439984274941095E1    -5.077017060660761       1.696838161394493E2    -5.079653797266507       1.697115688958397E2    -1.897562180699190E1    -8.896577497921882E1
 1.285714285714286E9    -1.717683836182521E1    -7.379702450330903E1    -5.062681078105520       1.676483764725745E2    -5.066731535886286       1.676642950900413E2    -2.003325715448732E1    -8.835114106967001E1
 1.290726817042607E9    -1.774925826125428E1    -7.260744344132158E1    -5.067171658394305       1.656116794279273E2    -5.063311741309791       1.656521251142908E2    -2.118909832852045E1    -8.674134628052771E1
 1.295739348370927E9    -1.830386987536975E1    -7.125270410956836E1    -5.065817111407665       1.636240485091209E2    -5.068114676961879       1.636364243754814E2    -2.252109234128776E1    -8.387205569596220E1
 1.300751879699248E9    -1.887776659395722E1    -6.916380690603195E1    -5.076780942893013       1.616159961302483E2    -5.077816579827931       1.616263574314224E2    -2.390903284479007E1    -7.948616138864365E1
 1.305764411027569E9    -1.947542444166356E1    -6.638912511329343E1    -5.088921276450508       1.595673710067085E2    -5.093466549469653       1.596253719592029E2    -2.546831324276554E1    -7.157988565762861E1
 1.310776942355890E9    -2.001653919880186E1    -6.320692908843881E1    -5.112359376214293       1.576242623763334E2    -5.108339278365962       1.575796723830717E2    -2.673416659386900E1    -5.973717997022953E1
 1.315789473684211E9    -2.047807382232842E1    -5.907411374011619E1    -5.130122337792582       1.556078755286108E2    -5.129439882217404       1.555666248110187E2    -2.761933331774666E1    -4.417309617152195E1
 1.320802005012531E9    -2.085870124393591E1    -5.431270960059716E1    -5.154874789193165       1.535631897166360E2    -5.159324785537454       1.535319320535271E2    -2.751471093066008E1    -2.729749657752938E1
 1.325814536340852E9    -2.120335249965866E1    -4.908652569969172E1    -5.188407086594125       1.515175261389352E2    -5.189930576459282       1.515747611130292E2    -2.650370783160754E1    -1.171349421079165E1
 1.330827067669173E9    -2.133178317980736E1    -4.339210226957486E1    -5.229658248228036       1.495143430038567E2    -5.235188043708665       1.495316556637256E2    -2.508497808083570E1    -1.020922844511432
 1.335839598997494E9    -2.126140253307053E1    -3.736875967060230E1    -5.279629389835812       1.475002082935084E2    -5.281284688656750       1.474891287239556E2    -2.354187184525328E1     6.079967213359769
 1.340852130325815E9    -2.110025035385391E1    -3.191690750854235E1    -5.324505926608957       1.454624699311959E2    -5.331181086334780       1.454695946155936E2    -2.207939892049559E1     9.987394246405293
 1.345864661654135E9    -2.072754583860169E1    -2.678120882012421E1    -5.380194718296686       1.434607105833199E2    -5.382778135451170       1.435100069529603E2    -2.081747019382908E1     1.260939831141690E1
 1.350877192982456E9    -2.029039943071890E1    -2.219360124394175E1    -5.444074422426247       1.414432742732423E2    -5.449526050531866       1.414563964345911E2    -1.966623179993695E1     1.362213308198740E1
 1.355889724310777E9    -1.980197923549712E1    -1.833351885094394E1    -5.514802135924421       1.394273917633790E2    -5.525774499423816       1.394723229886681E2    -1.857902936007244E1     1.408727364678349E1
 1.360902255639098E9    -1.923183546738214E1    -1.529278777266322E1    -5.606063918959676       1.374110569851186E2    -5.593480670872203       1.374329957627095E2    -1.765049079144054E1     1.400786785335425E1
 1.365914786967419E9    -1.862766067493614E1    -1.299840279339064E1    -5.683478862447117       1.354226943651952E2    -5.683337568633288       1.354169798207104E2    -1.679355379792439E1     1.336973625843051E1
 1.370927318295739E9    -1.799942919698685E1    -1.093072498828833E1    -5.771352697519245       1.333464534416548E2    -5.774711352655423       1.334216866600477E2    -1.596309502044956E1     1.254435429123822E1
 1.375939849624060E9    -1.740976082043204E1    -9.666436419218423      -5.868251060305622       1.314238862373371E2    -5.870662986720006       1.314213440022016E2    -1.526883479861846E1     1.133809524041898E1
 1.380952380952381E9    -1.684024286746300E1    -8.786799898998424      -5.978810449049407       1.293866329754939E2    -5.979829227953170       1.294301880382009E2    -1.460425349572067E1     1.004972524759932E1
 1.385964912280702E9    -1.627544243758322E1    -8.448052920280432      -6.085363414772473       1.274731084744118E2    -6.085493653519518       1.274887337119007E2    -1.397818639611927E1     8.604765908425382
 1.390977443609023E9    -1.575029856331911E1    -8.266966340397733      -6.209545993470636       1.255145784665000E2    -6.215209789769754       1.255228986878593E2    -1.340385893750178E1     6.819262455903047
 1.395989974937343E9    -1.523692748052742E1    -8.519272895256057      -6.343273076028027       1.235186539168834E2    -6.346573034040736       1.235728135780879E2    -1.290251808781163E1     5.138623854762628
 1.401002506265664E9    -1.474009277703232E1    -9.022841374953257      -6.474468183681708       1.215927129597538E2    -6.478807113311559       1.215637346415694E2    -1.237888110860890E1     3.201264859505372
 1.406015037593985E9    -1.426507749192650E1    -9.522781752220277      -6.613599157724566       1.196194915657974E2    -6.618796867766434       1.196800577235581E2    -1.191281775573686E1     1.388615999244721
 1.411027568922306E9    -1.383214738696897E1    -1.028557913789733E1    -6.774234663315003       1.177485554443514E2    -6.771765873304876       1.177609669579521E2    -1.147693450230485E1    -5.117231835543820E-1
 1.416040100250627E9    -1.339926003003996E1    -1.120421405437405E1    -6.942392046957466       1.158154159325178E2    -6.950967678338955       1.158499454187084E2    -1.106375549200593E1    -2.559963860389569
 1.421052631578947E9    -1.300456633379147E1    -1.225651580736084E1    -7.105857909263493       1.140100547150237E2    -7.118896460010527       1.139928374917086E2    -1.067182773322921E1    -4.671917963449308
 1.426065162907268E9    -1.261599498417994E1    -1.346728927851148E1    -7.302541038410205       1.120746974678319E2    -7.299493527407993       1.121818181837930E2    -1.032218795788451E1    -6.721107174968283
 1.431077694235589E9    -1.225919457148933E1    -1.474642579217555E1    -7.489765916330859       1.102756472688269E2    -7.492055717409918       1.103225701992171E2    -9.957825642922686      -8.870965274809485
 1.436090225563910E9    -1.191473125693477E1    -1.611351943488226E1    -7.690730722300514       1.084605478729102E2    -7.691653871271068       1.085071693828375E2    -9.635416700949582      -1.102905474473372E1
 1.441102756892231E9    -1.160081270425234E1    -1.753481295801141E1    -7.905751975523704       1.067759287252672E2    -7.913571038281114       1.068012612578919E2    -9.331081969082309      -1.321918907426601E1
 1.446115288220552E9    -1.129149298916950E1    -1.908476900883619E1    -8.131070222042563       1.050717524144937E2    -8.137118788060768       1.050835153146484E2    -9.037182642340776      -1.553724215061522E1
 1.451127819548872E9    -1.099876268451922E1    -2.067418400415010E1    -8.373556482863592       1.033729978708392E2    -8.367908917503398       1.033734402452302E2    -8.759234830748419      -1.770311952835074E1
 1.456140350877193E9    -1.072170623254206E1    -2.231162408470336E1    -8.619782048574482       1.017805760710138E2    -8.628643852359859       1.017258791056501E2    -8.505920474458696      -2.005023508412177E1
