#  HZ   S   DB   R     50.00 
! Rohde & Schwarz Vector Network Analyzer 
! Rohde-Schwarz,ZND-2Port,1328517092100682,2.70
! Created: UTC 11/29/2017, 5:38:45 PM
! freq[Hz]                db:S11                  ang:S11                 db:S21                  ang:S21                 db:S12                  ang:S12                 db:S22                  ang:S22
 1.000000000000000E9    -8.836646024236828       1.711417492155057E-1   -2.375727074276129       8.588461748776520E1    -2.371947828692394       8.592918403143779E1    -7.948317461994626       1.527483135188114E1
 1.005012531328321E9    -8.860298689887726      -1.901889410048137      -2.354139353722800       8.440610146407862E1    -2.347850948067315       8.440151238164037E1    -7.998911983560344       1.398875679504623E1
 1.010025062656642E9    -8.878183454888971      -4.013505987766300      -2.338720648721885       8.290586462925710E1    -2.335134010707577       8.284901768117057E1    -8.054044900480687       1.290268172307733E1
 1.015037593984963E9    -8.899142526335824      -6.094142148089430      -2.319619838496392       8.139297122183015E1    -2.311439246185716       8.131833259784142E1    -8.098535555522179       1.166988784547944E1
 1.020050125313283E9    -8.950958628018505      -8.158353886301486      -2.304607528079302       7.982613395181953E1    -2.300034798147655       7.983171493030571E1    -8.143476099500637       1.062023121353808E1
 1.025062656641604E9    -8.984164736325226      -1.027757635753326E1    -2.282681461834511       7.832840607459535E1    -2.283244550427451       7.832383530278754E1    -8.203430661259009       9.342870230014446
 1.030075187969925E9    -8.999018769663769      -1.236927092034147E1    -2.262144434142758       7.680061219906287E1    -2.267277247600054       7.677025030075686E1    -8.256846756029155       8.194765232044881
 1.035087719298246E9    -9.057184068568498      -1.447333660541727E1    -2.252256060234069       7.530284958205142E1    -2.247689446492301       7.528028676100279E1    -8.298922993749434       7.065192470125929
 1.040100250626566E9    -9.089244864067577      -1.655322317157069E1    -2.219060015895131       7.375641554109494E1    -2.233896259355152       7.375840522422560E1    -8.361277182347106       5.932311338491234
 1.045112781954887E9    -9.145417265572688      -1.865496426645474E1    -2.215115807701928       7.222941413740357E1    -2.222712533099398       7.225125108394013E1    -8.427661458173130       4.783240296974115
 1.050125313283208E9    -9.189474635488459      -2.080980038568308E1    -2.196045132469123       7.066359460184394E1    -2.192364241529365       7.069500116104678E1    -8.457822901165065       3.664417176209612
 1.055137844611529E9    -9.250524595885526      -2.291955418172832E1    -2.184667344165913       6.916457634807037E1    -2.181155139473895       6.912610822030023E1    -8.515784216198345       2.473204328033816
 1.060150375939850E9    -9.286823534772736      -2.499405909170496E1    -2.164535726525163       6.763819032756442E1    -2.164994184478729       6.762117196556667E1    -8.570950043298023       1.201979477884314
 1.065162907268171E9    -9.342698798621777      -2.708328741131273E1    -2.152531769212044       6.602938193781435E1    -2.151549963626305       6.608423714166560E1    -8.642091879099084       1.588601037599901E-1
 1.070175438596491E9    -9.412156680765069      -2.925149377171820E1    -2.126759839199306       6.454104298921432E1    -2.127548365189822       6.459427799133844E1    -8.701240151456641      -9.107094084453195E-1
 1.075187969924812E9    -9.473777476283861      -3.129376365475155E1    -2.118901946088231       6.298840418406093E1    -2.111157988569712       6.304128277942934E1    -8.749199818859776      -2.159230593501508
 1.080200501253133E9    -9.535739350582922      -3.345340733412697E1    -2.099248419947501       6.142832025248110E1    -2.099595248724096       6.143667994567456E1    -8.812081956124052      -3.377896187590992
 1.085213032581454E9    -9.599144858058599      -3.546776630063152E1    -2.087467353956326       5.989705720134403E1    -2.083017128493402       5.988819431809295E1    -8.867938529955396      -4.505976624122368
 1.090225563909775E9    -9.678433391580638      -3.766244026652288E1    -2.062154843557559       5.839164607628861E1    -2.073406115800561       5.834058656120652E1    -8.942191111703890      -5.701227866370559
 1.095238095238095E9    -9.766243289110484      -3.964475526234683E1    -2.056313491799075       5.678613410396057E1    -2.051241644203662       5.682966443001426E1    -8.993285003343285      -6.728687782657226
 1.100250626566416E9    -9.837681771557683      -4.183253764768467E1    -2.041653661316023       5.527708124328704E1    -2.027583024326185       5.525865944720999E1    -9.056044971583683      -7.889199201000840
 1.105263157894737E9    -9.926520852740573      -4.396243901666822E1    -2.021849861217826       5.366439112374552E1    -2.029887393126656       5.365762945524596E1    -9.134764176946316      -9.029331268368081
 1.110275689223058E9    -1.002016187702753E1    -4.600779918550658E1    -2.011665204514700       5.212461013910746E1    -2.008807538745584       5.213111176826248E1    -9.184799867773043      -1.013008810731907E1
 1.115288220551379E9    -1.012643899473310E1    -4.813956070758989E1    -1.999633872591044       5.051988480094026E1    -1.999091424043617       5.055383054258394E1    -9.261879544853235      -1.130135872864092E1
 1.120300751879699E9    -1.021922633660577E1    -5.028626266472386E1    -1.978711640323412       4.900372833315851E1    -1.979878416618889       4.901479885496455E1    -9.319801935298848      -1.241896360212634E1
 1.125313283208020E9    -1.030817724427912E1    -5.251043427942923E1    -1.968317213018543       4.740821538058046E1    -1.966521688234172       4.741229714207326E1    -9.396106250224950      -1.353265797061328E1
 1.130325814536341E9    -1.042149880945710E1    -5.456294801887344E1    -1.950994520133707       4.586013453456707E1    -1.949969406407247       4.583796187145331E1    -9.454951010922304      -1.448359429228950E1
 1.135338345864662E9    -1.054230369386632E1    -5.678934957644513E1    -1.940163512864350       4.428226816601257E1    -1.936536524266260       4.426618272132049E1    -9.520569571536203      -1.565123479653743E1
 1.140350877192982E9    -1.064830318174578E1    -5.888319104161067E1    -1.923193168595490       4.268641799021850E1    -1.927761402371495       4.271341970786386E1    -9.599062592405140      -1.673950335422127E1
 1.145363408521303E9    -1.075820180757421E1    -6.097230475858919E1    -1.908548710771099       4.112706563989182E1    -1.913275766978565       4.109599398307471E1    -9.663265325510228      -1.779589218501797E1
 1.150375939849624E9    -1.089828787266050E1    -6.311869890348746E1    -1.903453687072767       3.956369970415553E1    -1.902546414927806       3.951819650138145E1    -9.734603132733410      -1.881982252992507E1
 1.155388471177945E9    -1.103518709387430E1    -6.530835293893072E1    -1.893103064392748       3.797769591699100E1    -1.891008007996709       3.794829486888573E1    -9.806165747738891      -1.981399749760831E1
 1.160401002506266E9    -1.116240199818253E1    -6.742090079704084E1    -1.879372319809985       3.641658538827979E1    -1.883638347866954       3.637088431074827E1    -9.893340106750305      -2.091278077422011E1
 1.165413533834586E9    -1.129311857896001E1    -6.967144885594871E1    -1.867900364537572       3.475121737907364E1    -1.864082147878952       3.477950979628922E1    -9.961890089911019      -2.190713101503390E1
 1.170426065162907E9    -1.144732533931866E1    -7.181623081865784E1    -1.853116623172219       3.314236290658325E1    -1.861112837262296       3.318519817219060E1    -1.004121619718573E1    -2.289518358164179E1
 1.175438596491228E9    -1.159533677786487E1    -7.399586193782366E1    -1.844526461739011       3.154740544006290E1    -1.841261412507051       3.159452006011623E1    -1.011735572630762E1    -2.384361570833077E1
 1.180451127819549E9    -1.174698840975480E1    -7.607324282851462E1    -1.839785406529330       2.995653339194173E1    -1.835433004935924       3.002017001368567E1    -1.019468046738344E1    -2.492871058540110E1
 1.185463659147870E9    -1.192347314558305E1    -7.829873731135926E1    -1.821877074342399       2.837817496829241E1    -1.836891705161261       2.838196586892042E1    -1.029130277736618E1    -2.603385739765641E1
 1.190476190476191E9    -1.208038632738782E1    -8.053979138013909E1    -1.808740057469601       2.677473166515936E1    -1.823447584073727       2.675469033101595E1    -1.035820104945846E1    -2.687807020376055E1
 1.195488721804511E9    -1.226825645872488E1    -8.272760309514635E1    -1.802161077858427       2.515862027904097E1    -1.810670017262482       2.517723061987774E1    -1.044175230229096E1    -2.780971301483802E1
 1.200501253132832E9    -1.245792648576847E1    -8.485044022243490E1    -1.805799457522499       2.356508184490952E1    -1.803250680902594       2.358678185886062E1    -1.051497109374709E1    -2.882119613517924E1
 1.205513784461153E9    -1.264997028751226E1    -8.716162367164026E1    -1.795440052627924       2.195528489677469E1    -1.791730760770046       2.201450301776719E1    -1.060228737150768E1    -2.969974957922971E1
 1.210526315789474E9    -1.285170473386637E1    -8.939322004424284E1    -1.783596133301641       2.033995611554663E1    -1.781272400161773       2.039088444025771E1    -1.068872192187242E1    -3.058392538234353E1
 1.215538847117795E9    -1.305648218921972E1    -9.166902899250472E1    -1.778094910631125       1.874660276777060E1    -1.779021472590287       1.867180345830698E1    -1.077727627204744E1    -3.148342387386026E1
 1.220551378446115E9    -1.328074683534847E1    -9.393839711223249E1    -1.765538873719230       1.710732640049443E1    -1.771720305757174       1.706653475467496E1    -1.083581976433802E1    -3.233905202890001E1
 1.225563909774436E9    -1.353363580167060E1    -9.619586301179231E1    -1.767110253215462       1.546695212789036E1    -1.765367133519157       1.551445353930867E1    -1.092530751124788E1    -3.321017264600800E1
 1.230576441102757E9    -1.375653468606273E1    -9.852868566600567E1    -1.761893270082838       1.384997000354541E1    -1.765878242565963       1.387401633622795E1    -1.100509454545867E1    -3.394992485692237E1
 1.235588972431078E9    -1.401404804448974E1    -1.007229602640028E2    -1.754664045317294       1.221310364514851E1    -1.762463287236144       1.219401062186947E1    -1.108777660764016E1    -3.479617242914161E1
 1.240601503759399E9    -1.428918310384846E1    -1.032077047560352E2    -1.749637380912708       1.058987000514224E1    -1.752334179051936       1.059675935406710E1    -1.117679641691677E1    -3.557931698412099E1
 1.245614035087719E9    -1.457206155642996E1    -1.056591391058230E2    -1.750878649411205       8.932709189727241      -1.748762329669151       8.960855907584316      -1.127188857823153E1    -3.637533782210795E1
 1.250626566416040E9    -1.486874034469783E1    -1.079018268259990E2    -1.749945467617432       7.323430514771362      -1.747493713413549       7.304339619146772      -1.135215496334366E1    -3.706453966176976E1
 1.255639097744361E9    -1.516611945264869E1    -1.102809403699623E2    -1.740520849813345       5.693102668675441      -1.743908961822437       5.656845712747977      -1.141665025468193E1    -3.784046826307340E1
 1.260651629072682E9    -1.551065008037049E1    -1.127974842452345E2    -1.743459155129876       4.070436489178890      -1.743781535565260       4.024596469135804      -1.152001422391104E1    -3.859740092770798E1
 1.265664160401002E9    -1.583282723540556E1    -1.152203931447312E2    -1.740762148818568       2.362894475615732      -1.749970748087038       2.407883404793520      -1.161917744735552E1    -3.921541236095490E1
 1.270676691729323E9    -1.620347177452029E1    -1.176710782013193E2    -1.747013661087159       7.498854882485154E-1   -1.742924449076508       7.357206898443881E-1   -1.169021236393338E1    -3.977778605402942E1
 1.275689223057644E9    -1.660229451938409E1    -1.202944875612648E2    -1.740480855064268      -9.148133254217614E-1   -1.744118380261232      -9.227805301702884E-1   -1.175301628461724E1    -4.039087168975466E1
 1.280701754385965E9    -1.699575573494527E1    -1.228954981430546E2    -1.747597175143656      -2.548664600410405      -1.745265386624906      -2.558445442176696      -1.186031482603940E1    -4.097689639050257E1
 1.285714285714286E9    -1.742717259160684E1    -1.253724424608975E2    -1.750283214392636      -4.173166411666561      -1.753476358595228      -4.177145790653051      -1.192943950126341E1    -4.155650370130272E1
 1.290726817042607E9    -1.787690496741160E1    -1.280354325824511E2    -1.750907864834548      -5.868750453811810      -1.753726547737079      -5.889192397757062      -1.199948010103872E1    -4.211929999176038E1
 1.295739348370927E9    -1.835158055999391E1    -1.307167102259087E2    -1.761811207128299      -7.533921036659063      -1.759974652462469      -7.513926770781183      -1.210082502042387E1    -4.271127748665613E1
 1.300751879699248E9    -1.883418694318061E1    -1.335004454584218E2    -1.767536389685265      -9.198970613745987      -1.764614740342683      -9.170059023872547      -1.216320657931506E1    -4.307857393022435E1
 1.305764411027569E9    -1.942263525529612E1    -1.364740811481386E2    -1.769205222970373      -1.079878043558375E1    -1.773194732315284      -1.082709101608493E1    -1.224948653320342E1    -4.364731845686819E1
 1.310776942355890E9    -2.001490367563904E1    -1.394259276032949E2    -1.782141918595128      -1.248497000975677E1    -1.782112979832128      -1.253861655954190E1    -1.231066732313437E1    -4.403113082881768E1
 1.315789473684211E9    -2.065819241825828E1    -1.425596151002582E2    -1.785556357676871      -1.414275498692175E1    -1.794302700818248      -1.417200209531755E1    -1.236776346432436E1    -4.439136094328276E1
 1.320802005012531E9    -2.134489760525601E1    -1.457035543277502E2    -1.796072140009096      -1.579219104020872E1    -1.800597006348690      -1.584582069802901E1    -1.245006454655350E1    -4.490165869753774E1
 1.325814536340852E9    -2.213490836086292E1    -1.493493408853042E2    -1.808902148134819      -1.747259947018374E1    -1.809044983402865      -1.751372244317286E1    -1.249578284432808E1    -4.521820400503195E1
 1.330827067669173E9    -2.294825415867114E1    -1.527656170752105E2    -1.822737706341995      -1.912747541268011E1    -1.824528687964270      -1.916046724671051E1    -1.255225460409187E1    -4.557739663560678E1
 1.335839598997494E9    -2.393949233944205E1    -1.572814694998566E2    -1.831552719196691      -2.083431265639428E1    -1.836083715144249      -2.081224482412576E1    -1.260219118495165E1    -4.581069615555338E1
 1.340852130325815E9    -2.494732726652069E1    -1.617379877222107E2    -1.853629278499889      -2.249298572878176E1    -1.849585540970493      -2.243372365942850E1    -1.262850399644457E1    -4.608965751174016E1
 1.345864661654135E9    -2.606315118395432E1    -1.669632944794719E2    -1.860921550105003      -2.411616288852780E1    -1.865693184167580      -2.411769346692933E1    -1.268551689095959E1    -4.641259121229808E1
 1.350877192982456E9    -2.738559460001455E1    -1.732251316895313E2    -1.875293375857912      -2.579755867412035E1    -1.879031899171582      -2.580664562862393E1    -1.270741968800322E1    -4.667870901609280E1
 1.355889724310777E9    -2.883529069857502E1     1.794122151002421E2    -1.896535024560391      -2.743546005966302E1    -1.895762139741042      -2.744436041959884E1    -1.271563510590926E1    -4.693741441004811E1
 1.360902255639098E9    -3.056587997569323E1     1.695704095851091E2    -1.911946254466057      -2.912764808977541E1    -1.920484384059227      -2.909738000746019E1    -1.277925479600856E1    -4.705407884850724E1
 1.365914786967419E9    -3.242359413601949E1     1.554182682979721E2    -1.936073575989264      -3.073481778344713E1    -1.938073793365415      -3.074580161730250E1    -1.277950349890018E1    -4.734205563210781E1
 1.370927318295739E9    -3.397238905291970E1     1.365118762022297E2    -1.952320601939887      -3.241113342385481E1    -1.957119134239300      -3.241526251970616E1    -1.280208863016219E1    -4.756661743463434E1
 1.375939849624060E9    -3.485264766495850E1     1.119792945614311E2    -1.974794052488194      -3.408491597257822E1    -1.970677565183144      -3.407078037942759E1    -1.279446712637061E1    -4.771647872940320E1
 1.380952380952381E9    -3.412118478820943E1     8.535277657778696E1    -1.999950537476325      -3.570596231883420E1    -2.007204656859799      -3.575118246191038E1    -1.281251370836533E1    -4.802417420543085E1
 1.385964912280702E9    -3.257622813827736E1     6.659529205397902E1    -2.022407453576541      -3.734442584070319E1    -2.028007108904253      -3.734238503523517E1    -1.281016571791625E1    -4.814703095308202E1
 1.390977443609023E9    -3.074021264251115E1     5.236199038966984E1    -2.051302968853220      -3.902872015771620E1    -2.052575528325059      -3.900815448093354E1    -1.279141305446828E1    -4.841295494066795E1
 1.395989974937343E9    -2.900184105153358E1     4.191088166414893E1    -2.073407741597070      -4.063525909984874E1    -2.078909287192125      -4.063446613940471E1    -1.280442681053531E1    -4.871033241854421E1
 1.401002506265664E9    -2.750777095159126E1     3.419624342263894E1    -2.102884979992085      -4.230134551006290E1    -2.108608567635145      -4.232359570835114E1    -1.276654117843969E1    -4.883367337638605E1
 1.406015037593985E9    -2.617494491700509E1     2.811670477447611E1    -2.129370860686773      -4.394000252149262E1    -2.132583166138011      -4.392509077844994E1    -1.273929587383972E1    -4.902817298640142E1
 1.411027568922306E9    -2.500422345121642E1     2.276740013881534E1    -2.161570494903661      -4.558265496150619E1    -2.164270839240408      -4.554610426816659E1    -1.272730857172122E1    -4.933747053726397E1
 1.416040100250627E9    -2.395659486283290E1     1.780693982364896E1    -2.199053498455005      -4.719827607834952E1    -2.202198900728068      -4.719301359100096E1    -1.269461171365517E1    -4.954412466153217E1
 1.421052631578947E9    -2.306658477313487E1     1.390229116738747E1    -2.224398428874344      -4.881159874209629E1    -2.232001686723202      -4.880382108742372E1    -1.265016719675387E1    -4.992880397554386E1
 1.426065162907268E9    -2.218223872277091E1     1.002539484677688E1    -2.259901124783130      -5.045167568220482E1    -2.263002814976002      -5.040164880264727E1    -1.259400162446124E1    -5.020160361852783E1
 1.431077694235589E9    -2.142635179475331E1     6.181343585373431      -2.299592169598435      -5.202232903531698E1    -2.302962676116466      -5.200268046150310E1    -1.253054366173295E1    -5.048158370608875E1
 1.436090225563910E9    -2.072902738481633E1     2.751639274226267      -2.336182894765940      -5.359382843919966E1    -2.338410478179774      -5.364005792083122E1    -1.247649736123587E1    -5.083792245606767E1
 1.441102756892231E9    -2.011627346391604E1    -4.966477453280557E-1   -2.368698647629507      -5.522887875581279E1    -2.373266851500859      -5.520524906991099E1    -1.243420336466808E1    -5.125734103745340E1
 1.446115288220552E9    -1.948006506400379E1    -3.807894569042849      -2.412624885611275      -5.679455597187302E1    -2.414674869411147      -5.681504977048012E1    -1.237811936294294E1    -5.168545313258832E1
 1.451127819548872E9    -1.893997931727279E1    -6.780531650969281      -2.448134978552717      -5.846067975885152E1    -2.450015367642358      -5.840381891680028E1    -1.230293502246814E1    -5.208709860129594E1
 1.456140350877193E9    -1.843465257003429E1    -1.008532333230984E1    -2.485732440940235      -5.996815451707490E1    -2.493511961166896      -6.000407244683968E1    -1.223526224518979E1    -5.251460950713878E1
